#frequency,mode,x,y,Ex_re,Ex_im,Ey_re,Ey_im,Ez_re,Ez_im,Hx_re,Hx_im,Hy_re,Hy_im,Hz_re,Hz_im
9e+09,1,0.009,0.003,-0.048815026838633,3.67901249761019e-13,1,0,-3.46980351546065e-14,0.340835325623118,-0.00388502120543729,1.38338721915128e-14,-3.83123329165763e-09,6.31621828842003e-15,-6.09258200640316e-16,0.000556462005573761
9000000000,1,0.004,0.002,-0.172986584860583,1.41647170758826e-13,0.649220073059204,2.63633954709098e-14,4.29495735567692e-14,0.138968839004157,-0.00252226873076039,-1.33747265688209e-15,-1.65360507676229e-08,2.66782614505718e-15,9.19932934256352e-16,0.0031393792563703
9000000000,1,0.004,0.004,-0.32382029465545,-4.43256158688475e-15,0.521814869818599,3.12610250754052e-13,-7.77617991094372e-14,0.260162211222723,-0.00202726616644576,4.7927109671656e-15,-1.94431509294954e-09,-5.49230280013339e-15,5.15341094336985e-16,0.00252331719749675
9000000000,1,0.004,0.005,-0.311993901716435,2.92568914740538e-13,1.13046354662965,6.09096877468257e-13,-1.01083474055651e-13,0.250666210141937,-0.00179258577196206,-4.7192532330316e-15,-4.21442501801911e-09,-6.26508930200258e-15,-1.48469357821287e-15,0.00223123904083659
9000000000,1,0.004,0.007,-0.150206985038427,2.48201493271565e-13,1.01397514871371,2.78854062686592e-13,1.71311939252635e-13,0.120654017510863,-0.00160788169053413,-6.5923045030767e-16,4.88334783701343e-09,-7.79818650323711e-15,5.66450210881847e-17,0.0020013168617484
9000000000,1,0.011,0.002,0.0334457510303377,4.48117959632327e-13,1.09091718801885,2.60669762476873e-13,1.50006738070631e-13,0.233517565967389,-0.00423823563792742,-5.12375232628864e-15,-3.86208054805174e-10,-1.18866739077049e-14,2.89286055320932e-15,-0.000607026039966163
9000000000,1,0.011,0.004,0.06261757856506,2.14098415694581e-13,0.87683434167665,4.05446796985262e-13,1.10139391116453e-13,0.43716528615276,-0.00340655125580156,1.88914430980639e-14,1.4951725130277e-08,-4.64499115395565e-15,6.50965147990968e-16,-0.00048792642660846
9000000000,1,0.011,0.005,0.0603259886244435,3.64499589020456e-13,1.89958296418852,5.58295336356429e-13,-5.8074767717263e-14,0.421208559564779,-0.0030122119083726,-4.70737435641791e-15,-2.84132697698123e-09,-6.62773738526865e-16,-8.08217060499882e-16,-0.000431434207248887
9000000000,1,0.011,0.007,0.0290377031577872,2.96272160583128e-13,1.70383004485777,1.20498190237859e-13,-7.15709161908182e-14,0.20274198897351,-0.00270180948666225,4.11585476478947e-16,-8.86077824008835e-10,6.98329010828362e-15,-5.64388521284256e-16,-0.000386965878517923
9000000000,1,0.016,0.002,0.172986584902956,1.41817234052074e-13,0.649220073082564,-9.44959439843291e-14,-4.95403717490124e-14,0.138968839005988,-0.00252226873072512,4.14061964872105e-15,1.65359925694909e-08,4.55652680487401e-15,3.22884691296161e-15,-0.00313937925450565
9000000000,1,0.016,0.004,0.323820295806829,1.99522875207522e-13,0.521814868356617,-3.69808288199623e-13,9.59483500505845e-14,0.260162211225959,-0.00202726616170128,7.57996763555509e-15,1.94927364620507e-09,2.21323762029211e-15,9.01486528218478e-16,-0.00252331719337077
9000000000,1,0.016,0.005,0.311994079413657,4.52961684779878e-14,1.1304634154798,-1.21371322975754e-13,2.98263294922705e-14,0.250666210765374,-0.00179258572999939,4.01788711827264e-15,4.18815046541502e-09,6.22281959867336e-15,1.56481014185006e-15,-0.00223123898635794
9000000000,1,0.016,0.007,0.15020753728418,1.77746639228455e-14,1.01397555025867,-1.33473804106916e-13,4.6543420744618e-14,0.120654026728097,-0.00160788243531444,1.37331220850395e-14,-5.14001028002891e-09,8.83642712064218e-15,8.74767986156138e-16,-0.00200131722045515
9000000000,2,0.009,0.003,1,-0,0.527099821215438,-7.99977942670915e-12,0.216572668681311,-8.89995450030435e-13,4.27059277185354e-14,0.00246870227821037,3.43465109145129e-14,2.81521043731329e-08,-1.19686936544086e-13,-0.0113982623813393
9000000000,2,0.004,0.002,-0.222640519129411,1.433871951677e-11,1.7696792440494,-2.66517522493765e-11,0.456671017462286,-4.89735805384232e-12,1.15339330642488e-13,0.00828848394140756,3.96773526439212e-14,4.19589813304315e-08,1.22467833619167e-13,0.00404045206145094
9000000000,2,0.004,0.004,-0.416819081598117,2.21525195321046e-11,1.42233826943049,-2.05360395167015e-11,0.854926250088251,-9.27534298800302e-12,7.88699662917287e-14,0.00666193071226547,4.59740003023832e-14,6.94443628824443e-08,4.76239378783499e-14,0.00324756982502609
9000000000,2,0.004,0.005,-0.401570552596521,2.12920916271129e-11,3.08147178482406,-4.19711991758886e-11,0.823722044270474,-8.55025314641012e-12,9.20289053974458e-14,0.00589055102111931,2.52030582148751e-14,4.18808876387671e-08,1.23631116564e-14,0.00287168207591834
9000000000,2,0.004,0.007,-0.1933971856675,1.23403381189345e-11,2.7639217823757,-3.51254486684024e-11,0.396485227558184,-4.1311008349574e-12,7.44891104207788e-14,0.00528379102444627,3.29104565191691e-14,-2.90456156428929e-08,-3.65558112342066e-14,0.00257590442849282
9000000000,2,0.011,0.002,0.685150476368386,1.55426923715545e-12,-0.575013372823786,6.6491721600371e-12,-0.148380142492185,3.87270652418459e-12,-3.83054274360768e-14,-0.00269280141229203,1.72086269318666e-14,1.68284001482111e-07,-1.06762368581775e-13,-0.0124346301001596
9000000000,2,0.011,0.004,1.28255331836954,-2.0781582015314e-12,-0.462130877729362,6.42940580059769e-12,-0.277783666801984,6.28609892198967e-12,-3.43131978085933e-14,-0.00216504462226827,6.39229941011996e-14,1.09860677716773e-07,-1.36460433406339e-13,-0.0099944029676705
9000000000,2,0.011,0.005,1.23562487927981,-2.61047003869545e-12,-1.00118860893014,1.47010148393961e-11,-0.267642168863475,6.04597975722667e-12,-1.81776589737823e-14,-0.0019137425977798,4.1922882669994e-14,-5.18855574720352e-08,-1.45904454606966e-13,-0.0088375767666587
9000000000,2,0.011,0.007,0.594763146273604,1.10755482555747e-12,-0.898008580290559,1.49301239735701e-11,-0.128820823722604,3.05114201178473e-12,-1.74783399602171e-14,-0.00171641780256631,2.06535749031169e-14,9.4738527328744e-08,-1.6949953141472e-13,-0.00792697902546852
9000000000,2,0.016,0.002,-0.222640518915828,1.24882046420823e-11,-1.76967924301324,2.42642034572849e-11,-0.456671017653118,7.73759774135021e-12,-1.08616781880347e-13,-0.00828848394118478,2.14937719740601e-14,4.19573263434793e-08,1.01491249982843e-13,0.00404045201167541
9000000000,2,0.016,0.004,-0.416819079080089,1.95153540969725e-11,-1.42233827546385,2.06902544409044e-11,-0.85492625066055,1.3333819888646e-11,-8.40319032712829e-14,-0.00666193071435003,3.03395657176959e-14,6.93994929888443e-08,4.58015122910126e-14,0.00324756984391364
9000000000,2,0.016,0.005,-0.401571308183846,1.83380885477638e-11,-3.08147021899606,4.71394760879766e-11,-0.823722102145075,1.30100512139357e-11,-7.24966052738649e-14,-0.00589055142815283,4.08005125020721e-14,4.13426698584174e-08,2.12861194695878e-14,0.00287167858087727
9000000000,2,0.016,0.007,-0.193401053263328,1.07218735473884e-11,-2.76392464341645,4.40788321734315e-11,-0.396485271696743,6.03045928954046e-12,-8.2849372512411e-14,-0.00528380113092101,2.41449871129037e-14,-3.09698928461149e-08,-9.98082610556966e-15,0.002575909789771
9000000000,3,0.009,0.003,1,1.25478909879831e-28,-1.96606348805702e-05,-9.42472897471496e-14,1.00897294656213e-10,-1.41223898881377e-12,6.4577389091175e-15,-5.56985459440413e-10,7.15539497295045e-15,-0.00342130268601194,-7.65462685277163e-15,-0.00242561267245745
9000000000,3,0.004,0.002,0.759519190747315,2.312266740673e-12,2.04722898450656e-06,-2.07725053838015e-12,2.59886779071685e-10,-1.03070188678056e-12,1.30296533764275e-14,1.08940737936852e-07,3.20129719701999e-15,-0.00259853924123642,9.34034444596023e-15,-0.00425906542683323
9000000000,3,0.004,0.004,1.09593716584938,2.61092935741264e-12,-1.62952535193044e-09,-1.44114939645103e-12,1.07944017937307e-09,-1.70903659427658e-12,1.20040404301103e-14,7.98375826696315e-10,4.78401812481664e-15,-0.00374962078340778,-5.22120711710737e-15,-0.000241426908231634
9000000000,3,0.004,0.005,1.04039255145943,2.03289059675886e-12,-4.93002971206285e-07,-2.76947809134545e-12,1.07611173372651e-09,-1.62541441407774e-12,1.37528955983457e-15,6.92202142502771e-10,1.1551225678795e-14,-0.00355961087125771,-8.9729765771877e-15,0.00159324822298349
9000000000,3,0.004,0.007,0.637063094625077,1.28484792735779e-12,-1.23201279180709e-06,-2.42478040801061e-12,2.24216653591148e-10,-7.90640096508009e-13,3.2750181904372e-15,-6.50801465299562e-08,-5.38091464863203e-16,-0.00217960024293731,-6.64503845976121e-15,0.00390192426028747
9000000000,3,0.011,0.002,0.759565947248094,-1.94711676187156e-13,6.3317752840308e-06,-1.26276980914649e-13,-1.05216612325744e-10,-7.45932193787132e-13,-2.67375187889742e-15,-2.00068666970887e-08,7.78007940028687e-15,-0.00259884399974077,-4.05833489642559e-15,-0.00425891958137203
9000000000,3,0.011,0.004,1.09593762273585,-1.06675650153501e-12,-3.04614985096058e-07,-1.40334009228505e-13,3.6949657789223e-10,-1.18013765499694e-12,-3.63857292774191e-15,-1.82440374208461e-09,-6.30506762563821e-15,-0.00374962165914486,-7.99923666179539e-15,-0.00024145487063019
9000000000,3,0.011,0.005,1.04039167357982,-1.48703590191832e-12,-1.6982957925339e-07,-1.54160829382271e-13,1.21171807548196e-10,-1.15182135735307e-12,7.91031879186516e-15,6.76977977380327e-10,-1.5023198073887e-15,-0.00355961162463098,-5.58114203296734e-15,0.00159325324616074
9000000000,3,0.011,0.007,0.637072071067588,-1.57797001869315e-12,-2.10210422605118e-06,-2.18705319232422e-13,-9.23132774911107e-11,-7.05970593062073e-13,-5.7412351053148e-15,-3.2190304533442e-08,-3.31559152995474e-15,-0.00217955683213449,3.90059260520119e-15,0.0039019464275236
9000000000,3,0.016,0.002,0.759519190829682,-9.97097464993843e-13,-2.04731893631641e-06,1.91270445776851e-13,-2.6466236185447e-10,-4.36383073058884e-13,-1.88948425735649e-15,-1.08940982205235e-07,-5.05550766683363e-16,-0.00259853924194965,-9.93116974856059e-15,-0.00425906542989632
9000000000,3,0.016,0.004,1.09593716569064,-2.53796529307409e-12,1.91243413699996e-09,2.63023043006715e-13,-1.09933091814044e-09,-3.59843710073935e-13,-1.13183699484438e-14,-7.96975871596751e-10,8.10045820731454e-16,-0.00374962078073248,-8.83149542213087e-15,-0.000241427096079534
9000000000,3,0.016,0.005,1.04039248104618,-3.05570507452828e-12,5.29945947329445e-07,2.41101391129794e-13,-1.08005084297429e-09,-8.4566765244125e-13,-8.60396834839998e-15,-6.83834333172434e-10,-1.46906187178664e-14,-0.00355961131832974,-3.52177221500966e-15,0.00159324710906945
9000000000,3,0.016,0.007,0.637063458688424,-2.16293635853956e-12,1.45062570206243e-06,9.65750249404869e-14,-2.29158488245646e-10,-3.67035123855786e-13,-8.13910738180327e-15,6.52952526387099e-08,-8.54441213678489e-16,-0.00217959952233665,1.01392445942867e-14,0.00390192570913279
9000000000,4,0.009,0.003,-0.088930214315831,-3.82477897000109e-12,-0.243665485151303,1.69519851437416e-13,1,-0,-2.34308448198209e-14,0.00155956935705564,-1.27166126093506e-14,4.69997474266231e-08,-1.48956000837907e-14,0.000138665717762422
9000000000,4,0.004,0.002,-0.347398062109013,-8.04352982394621e-12,-0.246324907423133,1.68979833221077e-12,0.449663737475832,3.66001434441491e-13,-1.13541071447163e-14,0.0015766004967359,-3.19399360420188e-14,1.00399092442167e-08,-3.96995746365616e-14,0.00121803371842457
9000000000,4,0.004,0.004,-0.508188851197207,-1.12048843521299e-11,-0.0234962630243167,-2.31099925659939e-13,0.657744742894785,6.7456382589673e-13,-1.04829285387234e-14,0.000150419476152554,-3.93000291229483e-14,2.07192110239558e-08,1.62285847868116e-14,0.000116224562042611
9000000000,4,0.004,0.005,-0.482906501285041,-1.01774827558593e-11,0.158359774423676,-2.92373043651763e-12,0.625023027325192,2.43519434914774e-13,1.57008121922124e-14,-0.000413727227419767,-3.91454177899157e-14,2.32757061719945e-10,3.47969281958992e-14,-0.000319659009176066
9000000000,4,0.004,0.007,-0.292010304928337,-5.9311656379274e-12,0.356534245224914,-4.49686980398915e-12,0.37796521580524,5.70904592481165e-13,1.71979592753897e-14,-0.000931440747491355,-2.74308655871859e-14,7.34773221937014e-09,5.74478516326158e-14,-0.000719624227289894
9000000000,4,0.011,0.002,0.0671767372385667,-2.0453471583104e-13,-0.4138555659003,3.80908654266408e-12,0.755598253954055,5.70685294129957e-13,-1.03708628078241e-14,0.00264896740230241,-1.90880732384772e-16,1.43507750743516e-08,-1.20261103179264e-14,-0.000235487181040138
9000000000,4,0.011,0.004,0.0982716010333545,-4.62771421985645e-14,-0.0394815098563281,1.12981010977178e-12,1.1052461640954,5.49830736315858e-13,-1.32967955454976e-14,0.000252772034453081,1.35835476999266e-14,-4.72062020534783e-08,-6.56149326302897e-15,-2.24735171362966e-05
9000000000,4,0.011,0.005,0.0933694494174231,6.86890569800864e-13,0.266103558683107,-9.84640939918468e-13,1.0502613614584,8.87762444947614e-14,-5.86240131445042e-15,-0.000695221550401349,9.34209134895175e-16,6.28083613662451e-09,-9.6120209409837e-15,6.18115411247449e-05
9000000000,4,0.011,0.007,0.0564611769895421,1.54671629611371e-12,0.599105165936883,-4.46709270004575e-12,0.635118226573748,-1.10187259839014e-13,1.68212550197028e-14,-0.00156514701614547,1.17462772028921e-14,4.00379802407745e-09,-2.01739083332086e-14,0.000139151919039892
9000000000,4,0.016,0.002,0.347398062178294,5.66475412719701e-12,-0.246324907333769,3.06591782185679e-12,0.449663737594498,5.33572949030903e-13,-2.62759480346348e-14,0.00157660049796279,1.20570943332685e-14,-1.00392246272348e-08,5.26049460216138e-14,-0.00121803371785998
9000000000,4,0.016,0.004,0.508188852486175,9.26125835933935e-12,-0.0234962648707267,5.82526415508475e-13,0.657744742934512,4.14308165022891e-13,-8.97324861351249e-16,0.000150419493035641,1.55363095251947e-14,-2.06897618289555e-08,2.03588133612231e-14,-0.000116224597775978
9000000000,4,0.016,0.005,0.482906335094937,9.18112854637017e-12,0.158359896225856,9.7647899970425e-13,0.62502300796056,1.01049716440967e-12,5.09967339340453e-15,-0.000413727063449879,2.97205298038004e-14,-1.85344689529026e-10,3.44941460708169e-16,0.000319658721199386
9000000000,4,0.016,0.007,0.292010995557031,6.22863909528329e-12,0.356534756375449,-1.28685971080172e-12,0.377965238245406,4.05129194792917e-13,-3.7595927882318e-15,-0.000931442163395002,1.48670488080882e-14,-7.34923314964705e-09,-3.59125835966382e-14,0.000719623973103946
9000000000,5,0.009,0.003,-0.291888307835519,-1.07494847099231e-13,1.52788236500886e-06,-5.17621557452143e-12,1,-0,-1.20392017280764e-14,0.00242578371483482,3.09994728787468e-15,0.000839056646600719,-3.3231776337635e-15,0.000708002279920706
9000000000,5,0.004,0.002,-1.14644026665538,1.0016332790948e-11,-3.3470899938333e-05,-4.36582253656969e-12,0.452020649852929,2.58544950991409e-13,1.54297946686631e-14,0.00253469022226077,4.40451907779597e-14,0.00329438100673606,7.9144838749809e-14,0.00642842202511683
9000000000,5,0.004,0.004,-1.65419149017691,1.49778271347084e-11,-1.74580500098167e-05,-8.87669062910673e-13,0.652203197275314,6.43790628575275e-13,-9.42443356875444e-15,0.000143602438389135,7.38425525936958e-14,0.00475377984543565,2.22387300026059e-14,0.000364406787166967
9000000000,5,0.004,0.005,-1.57034896341775,1.43251342949866e-11,1.11697763219098e-05,5.81414792282394e-13,0.619147564124631,1.42117693069903e-13,9.01505922712055e-15,-0.000948119462641142,6.71784867402563e-14,0.00451285852790017,-1.25554168354425e-14,-0.00240483159938408
9000000000,5,0.004,0.007,-0.961609148425551,9.41800135592372e-12,2.38007157985038e-05,3.81384025154404e-12,0.379136524026351,6.71557472021301e-13,-1.65468153772127e-14,-0.00232213341101204,3.89582367678489e-14,0.00276327866365188,-6.36962184090101e-14,-0.00588942459948776
9000000000,5,0.011,0.002,0.221656933293809,-4.97637760420691e-12,1.67477431122439e-05,-5.54594076820456e-12,0.759558821928046,4.47875929464219e-13,3.08540907691747e-14,0.00425872493278569,-1.1557388453532e-14,-0.000637040393084601,-3.93796249168306e-14,-0.00124282218574929
9000000000,5,0.011,0.004,0.319881633779492,-6.57759490749174e-12,-6.39670169686552e-06,3.90504027170948e-13,1.09593440367674,8.08518617713852e-13,-2.32202744246155e-14,0.000241352181750629,-8.41688873964009e-15,-0.000919299053427105,-3.5255771313047e-15,-7.04615763222455e-05
9000000000,5,0.011,0.005,0.3036303533615,-5.2877804589683e-12,3.64696892067817e-05,6.04708650648646e-12,1.04038845020744,3.46571081697616e-13,-3.80461637271396e-14,-0.0015932222091185,-2.13311678686288e-14,-0.000872578250798444,5.93124364418362e-15,0.000465018762636471
9000000000,5,0.011,0.007,0.185928830418895,-2.06886330975505e-12,3.3991826113009e-05,1.04677884384632e-11,0.637086514766819,-1.247256663922e-13,-4.13535697176405e-14,-0.0039020629596277,-3.60984055483109e-15,-0.000534252584716595,9.18094826104045e-15,0.00113882712585562
9000000000,5,0.016,0.002,1.14644026663473,-1.41183383170351e-11,-3.34700757224368e-05,-3.52256942698695e-12,0.452020650206818,6.02725597660136e-13,-1.54181341619048e-17,0.00253469022868041,-7.00067954703461e-14,-0.00329438100561024,-7.53963613963771e-14,-0.00642842202218273
9000000000,5,0.016,0.004,1.65419149138522,-1.93120629592319e-11,-1.74609308624083e-05,-4.50159281405199e-13,0.652203197739769,8.76327517932976e-13,-4.7831050132755e-15,0.000143602453609471,-1.07180500779183e-13,-0.00475377978412439,1.71210412119845e-14,-0.00036440706487682
9000000000,5,0.016,0.005,1.57034873903388,-1.77200735521906e-11,1.18882556146005e-05,3.77046641912638e-12,0.619147544003319,1.54439497956188e-12,-2.26912817483967e-15,-0.00094811875599295,-8.36375529080696e-14,-0.00451285804834895,5.43924562216262e-14,0.00240482966500478
9000000000,5,0.016,0.007,0.961610609226456,-1.03850586804121e-11,2.4525733162295e-05,6.3556537920748e-12,0.379136548214317,6.44791382712685e-13,-3.29549218841809e-14,-0.00232213826614003,-6.54089579695329e-14,-0.00276327953678322,9.21301334523036e-14,0.00588942246191868
10000000000,1,0.009,0.003,-0.0471110523122864,-4.11196297197475e-15,1,0,2.48491114773172e-16,0.399311648076257,-0.00415704776909702,4.03535444533257e-18,-5.8805252491966e-09,-2.45766715781029e-17,-1.82678909460941e-17,0.000490499794926395
10000000000,1,0.004,0.002,-0.167839964986011,5.03141355208244e-15,0.661113882268802,-5.75909308081697e-15,1.93128130404286e-15,0.163675732233673,-0.00274832370944463,2.18040426794267e-17,-1.87600657432496e-08,1.63199102116969e-17,-1.09784327982342e-17,0.00281792527293694
10000000000,1,0.004,0.004,-0.310145072902393,4.66411774435318e-15,0.506276254871707,3.88585109705996e-15,2.0745470868058e-15,0.302478513475321,-0.00210462542533084,-2.33075044400629e-17,-3.6320876142212e-09,2.43728785704584e-17,2.32078833413225e-18,0.00215797147943732
10000000000,1,0.004,0.005,-0.296208889719699,1.27367244551604e-14,1.06236365233684,-1.21703131444993e-14,-2.29922810244908e-16,0.288893518668303,-0.0018025540344361,2.97517546629366e-17,-4.37194898801499e-09,-3.28211790225072e-18,2.44888187673227e-17,0.0018482698667665
10000000000,1,0.004,0.007,-0.140974108569761,-9.94224521487076e-16,0.92374615465804,-9.62112980663794e-15,1.99234469310052e-15,0.137457733102991,-0.00156736791807277,-3.71662412578047e-17,3.98423183785072e-09,2.15356244808005e-17,1.44439390344122e-17,0.00160710411874449
10000000000,1,0.011,0.002,0.0324498949163599,5.74210572235545e-15,1.1109006546307,-4.3197735802405e-15,9.98071590847473e-17,0.275034049597654,-0.00461806762503755,7.88713407957908e-18,-5.74511183132911e-10,2.39484632224561e-17,2.592505167751e-17,-0.000544866728297643
10000000000,1,0.011,0.004,0.0599731463411578,2.12270921573217e-15,0.850724290023803,-6.17481558469131e-15,-8.86991140075165e-16,0.508271776974078,-0.00353654219718096,3.517186607748e-17,1.97071809428402e-08,8.02661374743942e-18,-4.50696769897855e-18,-0.000417280293696985
10000000000,1,0.011,0.005,0.0572740364636564,-7.47313626797571e-15,1.78515020941337,-2.56367073627929e-14,-1.38812536089937e-15,0.485444044416194,-0.00302896146017303,4.38416557653122e-17,-3.72869330427801e-09,1.34139150128871e-17,3.41545903429114e-17,-0.000357382697029222
