#frequency,mode,x,y,Ex_re,Ex_im,Ey_re,Ey_im,Ez_re,Ez_im,Hx_re,Hx_im,Hy_re,Hy_im,Hz_re,Hz_im
9e+09,1,0.009,0.003,-0.0488150268373979,4.55479862998809e-13,1,0,1.03755234782658e-12,0.340835325616512,-0.00388502120527334,-2.05454314557552e-14,-3.83117430803773e-09,-4.96017614146408e-15,5.98740951702836e-15,0.00055646200558494
9000000000,1,0.004,0.002,-0.172986584859845,-5.55031082514111e-13,0.649220073057753,7.94498347159229e-13,-4.90990525894865e-13,0.138968839001148,-0.00252226873072996,-3.87018766367084e-14,-1.65360471783586e-08,-5.00853690755691e-15,-4.27147377181536e-15,0.00313937925636433
9000000000,1,0.004,0.004,-0.323820294654422,-8.2889935030795e-13,0.521814869817466,5.81306996820755e-13,-9.57344746709434e-13,0.260162211217915,-0.00202726616639047,-4.64358511873969e-14,-1.94435882319239e-09,1.96552613540551e-14,-2.81274365249178e-15,0.00252331719749052
9000000000,1,0.004,0.005,-0.311993901715582,-1.04294304379296e-12,1.13046354662687,1.01360807428152e-12,-6.78359469520439e-13,0.250666210137023,-0.00179258577199956,5.1471243835764e-14,-4.21444560995984e-09,-1.02272769030616e-13,2.5268795166657e-15,0.0022312390408336
9000000000,1,0.004,0.007,-0.150206985038097,-8.56240197985654e-14,1.01397514871055,1.19133343569196e-12,1.16012186146907e-12,0.120654017507057,-0.00160788169050429,2.93136862647235e-14,4.88331591772631e-09,7.15629908280877e-14,-1.19202114653992e-15,0.00200131686174024
9000000000,1,0.011,0.002,0.0334457510288818,1.07741670326056e-12,1.09091718801682,3.19969519113706e-13,1.03099986226757e-12,0.233517565962435,-0.00423823563786388,5.45753616162903e-15,-3.86298313601176e-10,-1.73720911855499e-14,-3.43979459993229e-16,-0.000607026039968177
9000000000,1,0.011,0.004,0.0626175785639872,1.38615052569015e-13,0.876834341673039,2.14043427480141e-12,9.56628588523997e-13,0.437165286144877,-0.00340655125560061,1.23769010713004e-14,1.49516440374089e-08,-2.70599474320797e-14,-8.99092433390869e-16,-0.000487926426611348
9000000000,1,0.011,0.005,0.0603259886238133,8.11262818261797e-14,1.89958296418602,-8.37234949367844e-13,5.82041308655664e-13,0.421208559557801,-0.00301221190836115,-9.27524622873722e-14,-2.84134783701072e-09,-1.82319660222468e-14,-5.01824571351713e-16,-0.000431434207251868
9000000000,1,0.011,0.007,0.0290377031578485,3.18959810901194e-13,1.70383004485441,2.0033932324251e-13,1.24255485831457e-12,0.2027419889706,-0.00270180948664627,1.1754677403465e-15,-8.86048466105702e-10,1.36189926676608e-14,-1.65550535738999e-15,-0.000386965878515057
9000000000,1,0.016,0.002,0.17298658490267,-2.67636609354473e-14,0.649220073081044,5.19201084132061e-13,4.94697380296026e-14,0.138968839003455,-0.00252226873066206,5.83163416367532e-14,1.65360188108597e-08,-2.38704345344995e-15,-1.05207069751852e-15,-0.00313937925450376
9000000000,1,0.016,0.004,0.323820295806353,-3.74107134056914e-15,0.521814868354989,2.45532718433555e-13,1.7047707817893e-13,0.260162211219886,-0.00202726616161405,5.91921777703609e-14,1.94929660935006e-09,-6.51414664495823e-14,7.79217299079808e-16,-0.00252331719336468
9000000000,1,0.016,0.005,0.311994079413061,-1.17186902847306e-13,1.13046341547716,8.20399733709015e-13,-1.17266622019808e-12,0.250666210759147,-0.00179258572998301,-7.8193318937206e-15,4.18818156643498e-09,5.65276401496109e-14,1.63403971080806e-15,-0.00223123898635108
9000000000,1,0.016,0.007,0.150207537284605,-3.96436650003735e-13,1.013975550256,4.04354082359222e-13,-6.73656371841245e-14,0.120654026725415,-0.0016078824352171,-6.69495809072387e-15,-5.13998129521107e-09,-6.8315949698487e-14,2.59474504423398e-15,-0.00200131722044773
9000000000,2,0.009,0.003,1,-0,0.527099821219348,-7.89925760808162e-13,0.216572668682647,5.91918341366154e-12,-1.05795104429628e-13,0.00246870227821615,2.75408314214163e-14,2.8152162060575e-08,-5.67388281005103e-14,-0.0113982623813507
9000000000,2,0.004,0.002,-0.222640519132258,2.72354074764492e-12,1.76967924405029,-1.48115376373282e-11,0.456671017466908,-3.47522047766352e-12,5.91053259185857e-14,0.00828848394141759,3.57853728066849e-14,4.195896828174e-08,2.88250007408466e-14,0.00404045206146877
9000000000,2,0.004,0.004,-0.416819081600587,4.82914242711928e-12,1.42233826943226,-1.15569275048385e-11,0.854926250094449,-4.70529147236572e-12,9.68985954394195e-15,0.006661930712258,5.18378498465633e-15,6.94443704071594e-08,8.75330440731412e-15,0.00324756982501661
9000000000,2,0.004,0.005,-0.401570552598819,5.39260500252452e-12,3.08147178482667,-2.30086738970387e-11,0.823722044276878,-3.58002519576942e-12,7.84740116156621e-14,0.00589055102107005,2.34114886924359e-14,4.18808355572073e-08,-2.63952824829216e-15,0.00287168207590718
9000000000,2,0.004,0.007,-0.193397185667562,2.63277529374566e-12,2.76392178237759,-2.0156725705069e-11,0.396485227559948,-4.75076813077056e-13,3.68091644808954e-14,0.00528379102439439,2.39097053501466e-14,-2.90456512762005e-08,-2.00235564040228e-14,0.0025759044284906
9000000000,2,0.011,0.002,0.685150476366756,-2.32430989609896e-12,-0.575013372823609,4.07495106439233e-12,-0.14838014249302,4.89702558152651e-12,-4.00220870223809e-14,-0.00269280141230489,1.71261564525059e-14,1.68284041399011e-07,-7.12899763809947e-14,-0.0124346301001536
9000000000,2,0.011,0.004,1.28255331835975,-4.30883341194099e-12,-0.462130877727362,2.4538099854721e-12,-0.277783666802761,3.65450362660428e-12,1.01609281183213e-13,-0.00216504462237322,-6.82815560286289e-15,1.09860662455426e-07,-6.08889354527258e-14,-0.00999440296767845
9000000000,2,0.011,0.005,1.23562487927068,-3.36623396093518e-12,-1.00118860893234,1.469755013034e-11,-0.267642168865267,3.17222751909161e-12,-2.01294023754224e-13,-0.00191374259772766,-1.55315970150309e-13,-5.18855239861404e-08,-5.83192574724479e-14,-0.00883757676666799
9000000000,2,0.011,0.007,0.594763146272221,-7.92740149433751e-13,-0.898008580293171,1.55173218215233e-11,-0.128820823722843,2.57761708756481e-12,-9.09887585832753e-15,-0.00171641780253192,-3.96267738207256e-14,9.4738559398711e-08,-6.8953353183373e-14,-0.00792697902548146
9000000000,2,0.016,0.002,-0.222640518917417,4.97381125719423e-12,-1.76967924301604,1.74800572180824e-11,-0.456671017651298,3.55550018471254e-12,-1.08154943147921e-13,-0.00828848394118871,3.81979584200358e-14,4.19573382949451e-08,3.5389020861249e-14,0.00404045201169817
9000000000,2,0.016,0.004,-0.416819079082912,8.13169784050459e-12,-1.42233827546493,1.45762099756606e-11,-0.854926250658872,7.6438833493026e-12,-7.32577403369642e-14,-0.00666193071434929,-4.19897960825069e-16,6.93995171546632e-08,1.87050050718809e-14,0.00324756984391242
9000000000,2,0.016,0.005,-0.401571308186132,7.99228051584036e-12,-3.08147021899971,3.25668339954887e-11,-0.823722102144083,7.04048324063303e-12,-4.54482384909536e-14,-0.00589055142813353,-1.09671860027215e-14,4.13427481296176e-08,1.14961512719506e-14,0.0028716785808725
9000000000,2,0.016,0.007,-0.193401053264002,4.69945709831814e-12,-2.76392464341846,2.85507346189141e-11,-0.396485271696515,3.59004022725781e-12,-7.20010533025826e-14,-0.00528380113091502,4.38631588830136e-14,-3.09698621075354e-08,7.22611862987467e-15,0.00257590978975922
9000000000,3,0.009,0.003,1,0,-1.96606351010119e-05,-4.50495943628431e-14,1.11651664101011e-10,2.38619739820183e-12,-2.79288449791288e-14,-5.56931655041827e-10,9.61871644650502e-15,-0.0034213026860152,2.31630096318586e-14,-0.00242561267248524
9000000000,3,0.004,0.002,0.759519190743864,-2.1946621821039e-12,2.04722918157467e-06,2.72479639917073e-12,2.63278921768852e-10,-5.20547238588174e-13,-1.24246380904906e-14,1.08940760376065e-07,-7.7892150490541e-15,-0.00259853924125551,-1.93206304938298e-14,-0.00425906542681586
9000000000,3,0.004,0.004,1.09593716584568,-3.34275579680767e-12,-1.62812914085959e-09,1.85935677125439e-12,1.08507402836132e-09,8.90232070145336e-14,-1.58987013894192e-14,7.98379870674009e-10,-7.9284081570685e-15,-0.00374962078341566,-8.91620192149448e-15,-0.000241426908230357
9000000000,3,0.004,0.005,1.04039255145641,-3.47917036006998e-12,-4.92998772224501e-07,3.60757893404282e-12,1.08199020436423e-09,-2.84197847206453e-14,-4.37477868593586e-15,6.9219778018362e-10,-2.36554886470452e-14,-0.00355961087128049,-3.87129032152328e-15,0.0015932482229855
9000000000,3,0.004,0.007,0.637063094624184,-1.77544178428236e-12,-1.23200662027877e-06,2.97660534507977e-12,2.27848201713491e-10,5.3091161006466e-13,-2.19272907416629e-14,-6.50801456824642e-08,-8.64256559000151e-15,-0.00217960024295947,1.70801594653272e-15,0.00390192426030417
9000000000,3,0.011,0.002,0.759565947248679,1.78161201408499e-12,6.3317711284167e-06,-1.67973147009784e-12,-9.95117934921372e-11,1.56083463469914e-12,-1.36130747777838e-14,-2.00068442253767e-08,1.03921621067596e-14,-0.0025988439997285,2.24126831886109e-14,-0.00425891958139476
9000000000,3,0.011,0.004,1.09593762273934,3.64376447089351e-12,-3.04616158323942e-07,-1.97570281625261e-12,3.77629167417101e-10,1.66281559917629e-12,-1.82975735339084e-14,-1.82446802367214e-09,-1.81238214699581e-14,-0.00374962165913031,1.91515483944305e-14,-0.000241454870661752
9000000000,3,0.011,0.005,1.04039167358398,3.62813700778156e-12,-1.6982562012543e-07,-3.01495578803662e-13,1.28926721533762e-10,1.65337970214878e-12,3.12916345806198e-15,6.77032295929964e-10,-1.66001669199415e-14,-0.00355961162457603,1.59988811996426e-14,0.00159325324613041
9000000000,3,0.011,0.007,0.637072071070557,1.51360928366252e-12,-2.10209749674344e-06,-7.93936956902789e-13,-8.73975386043622e-11,4.6488972115453e-13,2.4089153472977e-14,-3.21903101964192e-08,2.0995515438381e-15,-0.00217955683212331,1.24842341445183e-14,0.00390194642750844
9000000000,3,0.016,0.002,0.75951919082918,3.91552216102222e-13,-2.04732137308445e-06,-1.83284682164154e-12,-2.6311861301159e-10,-1.01864805988801e-12,7.69416471968131e-15,-1.08940967289922e-07,8.42556836330032e-15,-0.00259853924195118,-2.84172476939855e-15,-0.00425906542988643
9000000000,3,0.016,0.004,1.09593716569095,6.60424641030771e-13,1.911414364851e-09,-1.60513683349865e-12,-1.09699397163287e-09,-1.41246688560818e-12,9.65172230596662e-15,-7.9698039249188e-10,2.11895416496506e-15,-0.00374962078072232,-5.7731773450261e-15,-0.000241427096086956
9000000000,3,0.016,0.005,1.04039248104722,8.61213792983366e-13,5.29944607441545e-07,-3.90285946350584e-12,-1.0778544071483e-09,-1.44826579072701e-12,1.2420852864086e-14,-6.83839993698061e-10,1.15510827835185e-14,-0.00355961131831921,-7.94451361039862e-15,0.00159324710906126
9000000000,3,0.016,0.007,0.637063458690398,6.71819863642248e-13,1.45062623376841e-06,-3.56319555402302e-12,-2.27584406074387e-10,-4.52366281759826e-13,6.29395094235705e-15,6.52952456257569e-08,1.55569449474532e-14,-0.00217959952234467,-1.26686052129026e-14,0.00390192570913555
9000000000,4,0.009,0.003,-0.0889302143186396,-8.46095531388717e-13,-0.24366548514374,-4.19952354535077e-13,1,-0,1.49493251377757e-14,0.00155956935714429,-5.62254729135074e-15,4.6999745934311e-08,8.1954669486333e-15,0.000138665717792485
9000000000,4,0.004,0.002,-0.347398062109565,-6.71989286685583e-13,-0.2463249074171,2.84550397040877e-13,0.449663737475651,-1.01106508035403e-13,2.98227523080812e-14,0.00157660049674611,1.35741163354288e-16,1.00399330127387e-08,-4.0754484619112e-15,0.00121803371844056
9000000000,4,0.004,0.004,-0.50818885119854,-7.34260879929269e-13,-0.0234962630206546,2.71144227307133e-13,0.657744742894456,-3.67335490579681e-13,4.05846273997067e-14,0.000150419476190522,-2.17613542177007e-14,2.07192069671546e-08,5.80023167752778e-16,0.000116224562048033
9000000000,4,0.004,0.005,-0.482906501286807,-9.06590369048104e-13,0.158359774429375,-6.7591223085579e-14,0.625023027324615,-3.13725464537547e-13,-3.08697493512506e-14,-0.000413727227448761,7.46920094281368e-14,2.32729643847832e-10,7.46479083041684e-15,-0.000319659009173891
9000000000,4,0.004,0.007,-0.292010304929338,-2.54994893835822e-13,0.356534245226659,3.35697242751572e-14,0.377965215805719,7.99849426504924e-13,-7.0126265766525e-15,-0.000931440747490014,-4.55120034528213e-14,7.34771232774847e-09,1.49558262967425e-15,-0.000719624227301114
9000000000,4,0.011,0.002,0.0671767372338496,-2.77267663686758e-13,-0.413855565892891,-1.5602324579678e-13,0.755598253955426,8.58854913103871e-15,-2.4871010365614e-15,0.00264896740233749,-4.60986088679997e-15,1.43507123061847e-08,-2.15756295793552e-14,-0.00023548718102313
9000000000,4,0.011,0.004,0.098271601029102,-4.79261336759019e-12,-0.0394815098563954,4.7547280723654e-12,1.10524616410333,-2.41405001236161e-12,1.41687321211272e-14,0.000252772034632004,2.18818917791522e-14,-4.72062072607494e-08,-9.15058824870676e-15,-2.24735171331022e-05
9000000000,4,0.011,0.005,0.0933694494137989,-4.82428069489331e-12,0.266103558692656,-5.0929925760992e-12,1.05026136146596,-3.02233205096493e-12,5.50757599259044e-14,-0.000695221550471867,1.61915916463462e-14,6.28086213666232e-09,3.99926889407559e-16,6.18115411229584e-05
9000000000,4,0.011,0.007,0.0564611769875309,-1.33768888944769e-12,0.599105165940565,-2.17226884741044e-12,0.635118226575861,-7.08970806915854e-13,-1.07495315994092e-14,-0.00156514701616456,-2.06886887312077e-14,4.0038147499429e-09,2.6150758026004e-15,0.000139151919031686
9000000000,4,0.016,0.002,0.34739806217765,-3.62787528827447e-12,-0.246324907326694,2.51709538763195e-12,0.449663737594716,-6.02938756703012e-14,-4.7502646443894e-14,0.00157660049800522,-1.24213991060697e-14,-1.00391876134714e-08,-2.63923148242386e-14,-0.00121803371787696
9000000000,4,0.016,0.004,0.508188852485515,-5.50671730398774e-12,-0.0234962648671042,1.45907609563183e-12,0.657744742935956,1.68090034538126e-13,-5.84231769543304e-14,0.00015041949310764,3.82271087492942e-14,-2.06897421900679e-08,-4.77509494266924e-15,-0.00011622459778466
9000000000,4,0.016,0.005,0.482906335094057,-5.30501000684604e-12,0.158359896232049,3.61922707938119e-12,0.625023007962259,-8.3542394423314e-13,2.88050372144881e-15,-0.000413727063446796,-7.01556687944548e-14,-1.85288073266035e-10,6.46890181617246e-15,0.000319658721192142
9000000000,4,0.016,0.007,0.292010995557161,-3.69963225137e-12,0.356534756377546,2.83645299131634e-12,0.377965238245653,-5.66722907229238e-13,-1.67808600592956e-14,-0.000931442163332254,2.7965460916621e-14,-7.34918748960134e-09,1.81875932629321e-14,0.000719623973096711
9000000000,5,0.009,0.003,-0.291888307832742,-3.39861852146692e-12,1.52788702293597e-06,5.77872708617677e-12,1,-0,-1.77892447995675e-14,0.00242578371490268,-2.15343996574189e-14,0.000839056646587925,6.055535541985e-15,0.000708002279934655
9000000000,5,0.004,0.002,-1.14644026664288,-1.73630695332262e-11,-3.34708957734161e-05,6.52851221476715e-12,0.452020649853565,-7.48063136883247e-15,6.14231013974131e-15,0.00253469022226174,-6.64687749280035e-14,0.00329438100670281,-1.1840224456354e-13,0.00642842202505929
9000000000,5,0.004,0.004,-1.6541914901613,-2.47258136408938e-11,-1.7458045251834e-05,1.41083654808822e-12,0.652203197276584,-3.1171077516079e-13,2.38537464395777e-14,0.000143602438436613,-1.19558303895443e-13,0.00475377984536518,-8.99761157320154e-15,0.000364406787185936
9000000000,5,0.004,0.005,-1.57034896340393,-2.37271490590962e-11,1.11697873968242e-05,-2.59353833993419e-12,0.619147564125671,-1.62541321770231e-13,-1.80255623406561e-14,-0.000948119462664877,-2.18208994925992e-14,0.00451285852781183,4.75449297599337e-14,-0.0024048315993336
9000000000,5,0.004,0.007,-0.961609148418496,-1.42476503693479e-11,2.38007266035788e-05,-6.93428518826754e-12,0.379136524027403,9.09923596492496e-13,2.55722464953886e-14,-0.00232213341098385,-9.50471536123067e-14,0.0027632786636046,1.05918159084273e-13,-0.0058894245994201
9000000000,5,0.011,0.002,0.22165693328961,5.29692802043001e-12,1.67477434805637e-05,9.64413663133524e-12,0.759558821928546,-8.30019830612603e-13,-3.12441134283681e-14,0.00425872493279406,1.44083189623667e-14,-0.000637040393137863,1.0283849008223e-14,-0.00124282218573545
9000000000,5,0.011,0.004,0.319881633775066,3.47023460751385e-12,-6.3967025524862e-06,5.58764668818366e-12,1.09593440368398,-4.31306551151068e-12,3.48134346817078e-14,0.000241352181920247,3.51258960511389e-14,-0.000919299053428829,-4.78085659926244e-15,-7.04615763158879e-05
9000000000,5,0.011,0.005,0.303630353356402,2.7714736615685e-12,3.64696993205541e-05,-1.11197952149551e-11,1.04038845021423,-4.98063971491644e-12,4.0473809371346e-14,-0.00159322220918287,9.45313833823845e-15,-0.000872578250767222,-6.53197384903718e-15,0.000465018762630677
9000000000,5,0.011,0.007,0.185928830414457,3.10307271797915e-12,3.39918363923747e-05,-1.64247739000079e-11,0.637086514768836,-1.50590757218026e-12,4.30779720504085e-14,-0.00390206295961897,-1.05716704084619e-14,-0.000534252584682991,-1.83217394735801e-14,0.00113882712581639
9000000000,5,0.016,0.002,1.14644026662518,1.5288841855872e-11,-3.34700730670565e-05,9.5938142819691e-12,0.452020650206418,-1.15297566373845e-12,-6.88012409667853e-14,0.00253469022869725,7.19941312606378e-14,-0.00329438100554013,9.71700772390899e-14,-0.00642842202212601
9000000000,5,0.016,0.004,1.65419149136985,2.19313786281009e-11,-1.74609288215912e-05,2.37935708926894e-12,0.652203197739873,-1.51682707046827e-12,-5.48796243246675e-14,0.000143602453677295,1.49331663760307e-13,-0.00475377978405169,-4.11930281619638e-17,-0.000364407064859457
9000000000,5,0.016,0.005,1.57034873901807,2.0666570068817e-11,1.18882602267884e-05,-1.41020683273456e-13,0.61914754400362,-2.48208678164775e-12,1.19890698154511e-14,-0.000948118755998793,4.21244559231613e-14,-0.00451285804822841,-4.55031438339712e-14,0.00240482966499059
9000000000,5,0.016,0.007,0.96161060921647,1.25840258154587e-11,2.45257360964339e-05,-6.05343333805017e-12,0.379136548213666,-1.34515867230147e-12,1.3020252538246e-14,-0.00232213826606991,9.53634986685884e-14,-0.00276327953669384,-1.11126184963613e-13,0.00588942246184813
10000000000,1,0.009,0.003,-0.0471110523123561,1.13296658964413e-15,1,0,2.68347333414247e-15,0.399311648076202,-0.00415704776909645,-5.8089548975263e-19,-5.88052526341469e-09,2.12675025695302e-17,1.60047707612663e-17,0.000490499794926382
10000000000,1,0.004,0.002,-0.167839964986065,5.20677699449795e-16,0.661113882268732,4.52186672169157e-15,4.4203870782144e-15,0.16367573223366,-0.00274832370944423,1.17427683567853e-17,-1.87600657672379e-08,-1.05703372597583e-17,-2.4058250921208e-17,0.00281792527293656
10000000000,1,0.004,0.004,-0.310145072902405,-1.11623345165923e-14,0.506276254871579,1.61237829048372e-14,9.35072359294715e-15,0.302478513475284,-0.00210462542533054,-1.21500459229553e-17,-3.63208768150693e-09,-8.22440425806622e-18,-3.33843464154557e-17,0.00215797147943705
10000000000,1,0.004,0.005,-0.296208889719739,-2.16654664601014e-14,1.06236365233662,-1.28064157294761e-14,9.50144292279815e-15,0.288893518668267,-0.00180255403443585,-2.51131612665533e-17,-4.37194902134485e-09,-5.09224085914525e-17,7.0582789130893e-18,0.00184826986676633
10000000000,1,0.004,0.007,-0.140974108569765,4.24855895902604e-15,0.923746154658072,-1.11291286491226e-14,3.27490406230159e-15,0.137457733102968,-0.00156736791807265,1.67343047477151e-17,3.98423184502338e-09,4.84050265192935e-19,1.26981460071011e-17,0.00160710411874428
10000000000,1,0.011,0.002,0.0324498949163394,-2.98734405390758e-16,1.11090065463055,-8.42186288422687e-16,1.57275383713298e-15,0.275034049597621,-0.00461806762503697,1.04654329216734e-17,-5.74511129391985e-10,-1.13064477010069e-17,-6.48942961412279e-18,-0.000544866728297573
10000000000,1,0.011,0.004,0.0599731463411729,-1.19313069621648e-15,0.850724290023641,2.92832360476536e-16,1.96536923700314e-15,0.508271776974017,-0.00353654219718047,2.7425910640977e-19,1.97071810005162e-08,-1.3217845033896e-17,-1.77837272810556e-17,-0.000417280293696938
10000000000,1,0.011,0.005,0.0572740364632171,8.63103440089554e-16,1.78515020941312,5.74683093595478e-15,1.89928499462592e-15,0.485444044416153,-0.00302896146017253,-3.72338857978947e-17,-3.72869324465369e-09,9.70515393444835e-19,4.03232806369181e-18,-0.000357382697029112
