#frequency,mode,x,y,Ex_re,Ex_im,Ey_re,Ey_im,Ez_re,Ez_im,Hx_re,Hx_im,Hy_re,Hy_im,Hz_re,Hz_im
9e+09,1,0.009,0.003,-0.0488298211511182,-2.03148437453569e-13,1,0,-3.14870735811508e-13,0.340835179617373,-0.00388503878110873,4.54485842538174e-15,-2.2603351073762e-09,9.43894349623108e-15,3.79216902895102e-16,0.00055645172135597
9000000000,1,0.004,0.002,-0.172986443913671,4.25393041590974e-13,0.649219625244515,-1.30380537519457e-12,1.42747392723365e-13,0.138968737809494,-0.00252226491424766,7.99767122305805e-16,-1.61069742517151e-08,1.5155002362282e-14,-2.19090479719069e-15,0.00313937758023869
9000000000,1,0.004,0.004,-0.323819995645072,3.36160252036899e-13,0.521814505024953,-9.92705355737909e-13,1.84150356806318e-12,0.26016203662308,-0.00202726450078444,3.28018552009172e-14,-1.98470295354601e-09,-2.90415805202796e-15,-2.92759984971399e-15,0.00252331559756379
9000000000,1,0.004,0.005,-0.31199368912045,8.88238805814303e-13,1.13046277528309,-2.40899796243692e-12,9.9150264021265e-13,0.250666039077927,-0.00179258455906349,2.66499879509106e-14,-4.20973622238932e-09,-1.03026260806611e-14,-4.60767584302122e-15,0.00223123752140427
9000000000,1,0.004,0.007,-0.150206882546023,6.73268602465333e-13,1.01397445666811,-8.73997445781483e-13,6.95427162680825e-13,0.120653935172183,-0.00160788059305044,1.03790069801163e-14,4.88321852743029e-09,1.04065325095516e-14,-8.86631388653301e-16,0.0020013154958774
9000000000,1,0.011,0.002,0.0334533824801359,-4.04867131868299e-13,1.09092669819507,-4.94505179173737e-13,-5.6579563886166e-13,0.233517246631287,-0.00423822261100381,-5.74676227329447e-15,-9.39189074080463e-09,1.5336006777137e-14,1.33060678190179e-15,-0.000607046668285957
9000000000,1,0.011,0.004,0.0626152462151072,-3.9728394551348e-13,0.87683547872706,-3.53482043742594e-13,2.79413362161907e-13,0.437164970660398,-0.00340659600358939,-3.20216021206624e-14,2.77511013787769e-10,-2.03605198856134e-14,1.19261331546679e-15,-0.000487921541788346
9000000000,1,0.011,0.005,0.060325979494553,-3.30537742690653e-14,1.89958154535633,-4.26554053896228e-13,-1.45788219808513e-12,0.421208270459908,-0.00301220843971907,1.34380505165833e-15,-1.13924436804799e-09,-5.11402395374393e-15,5.10584424450361e-16,-0.000431433925476109
9000000000,1,0.011,0.007,0.029037682821695,-5.81606605497549e-13,1.70382888200275,-8.33636604740806e-13,-7.40649601913826e-13,0.202741850666296,-0.00270180764132185,-3.35813147363893e-14,-8.87163884087531e-10,9.9233352923359e-15,-1.7569248638443e-15,-0.000386965617887748
9000000000,1,0.016,0.002,0.172966289049193,3.73243986636254e-14,0.6492273576313,5.24839890937482e-13,7.95717003567036e-13,0.138969328604185,-0.0025222088175796,-2.99686506549394e-14,3.24463634853724e-08,-6.10500339362584e-16,-4.18086989564722e-15,-0.00313939059295875
9000000000,1,0.016,0.004,0.323816810433771,-1.38919197634616e-13,0.521813081977288,5.52226433750536e-13,-9.30862982689911e-13,0.260162252290708,-0.00202732239136195,4.31984278106121e-14,-9.42952906370829e-09,7.63470365746856e-15,-3.86571563085792e-15,-0.00252332328207628
9000000000,1,0.016,0.005,0.311993791732989,3.27803209100644e-14,1.13046249850969,6.78213711736942e-13,-4.20575520580411e-13,0.25066603961953,-0.00179258319750166,-4.11205520690451e-14,4.51388429628736e-09,3.25362665675351e-14,-2.10269991295672e-15,-0.00223123686822974
9000000000,1,0.016,0.007,0.150207434083069,1.75477163969134e-13,1.01397485811855,8.38909094247147e-13,-6.45867703113205e-14,0.120653944462165,-0.00160788133636526,-5.46064082602472e-14,-5.14058838492219e-09,5.50952902750252e-14,1.02212323207059e-15,-0.00200131585711443
9000000000,2,0.009,0.003,1,-0,0.527112305706402,-3.65927430341546e-13,0.21658732377954,8.85934656222275e-13,6.53934798773435e-14,0.00246990521003933,-5.61574311225866e-14,2.96055737408133e-08,1.35695979008624e-14,-0.0113990619143722
9000000000,2,0.004,0.002,-0.222654997007594,-5.80227750028593e-12,1.76979203411364,1.03310156423128e-11,0.456700078870108,3.21644702624565e-12,-5.99483479420941e-14,0.00828900562815563,-4.52053259602365e-14,4.20864323955302e-08,-1.49886886768814e-14,0.00404071338069233
9000000000,2,0.004,0.004,-0.416845357939291,-8.87053924678373e-12,1.42242775441079,7.37128025599168e-12,0.854980657533186,6.60553751981689e-12,-4.35195413259941e-14,0.0066623536597821,-5.41290140869535e-14,7.1028164498139e-08,6.35438856114133e-15,0.00324778066671829
9000000000,2,0.004,0.005,-0.4015961510597,-8.89712857905445e-12,3.08166807140813,1.40269222476218e-11,0.823774508800895,6.13184182290802e-12,-3.27439531825272e-14,0.0058909262949707,-3.10496153837752e-14,4.19995581793318e-08,1.96260179446889e-14,0.0028718648374977
9000000000,2,0.004,0.007,-0.193409503331551,-6.20322772904796e-12,2.76409782126379,1.07815737844682e-11,0.396510480455243,1.32763306939869e-12,-3.97718958159325e-14,0.00528412755868389,3.10993223119054e-14,-2.90476066865921e-08,4.17245468796666e-14,0.0025760684925683
9000000000,2,0.011,0.002,0.685039325862352,6.53467189328755e-13,-0.575031706615449,-1.25218750539306e-12,-0.148390214517624,-1.29268937305798e-12,-4.30337819640784e-14,-0.00269654835879786,-3.71961310338156e-14,-1.48555190322652e-07,8.23328375844629e-15,-0.0124355806214437
9000000000,2,0.011,0.004,1.28265836200817,9.96807475550226e-13,-0.462183334792535,-2.02813519549311e-12,-0.277800700455768,3.07391129193659e-13,1.35413850053986e-14,-0.00216486678552302,-1.34368762180468e-14,-1.5738605815274e-08,7.48514902839335e-15,-0.00999538478699109
9000000000,2,0.011,0.005,1.2357037639601,1.33102507449309e-12,-1.00125233079114,-5.36814873614137e-12,-0.267659198276179,-4.79660068387389e-13,1.75719534036911e-14,-0.00191386414913775,4.45323586254464e-15,-6.06612454728979e-08,1.24325210491174e-14,-0.00883812569308097
9000000000,2,0.011,0.007,0.594801019547414,-8.13728548055698e-13,-0.898065770843309,-5.25262195743747e-12,-0.128829027300342,-3.64036579171915e-13,6.62682768863657e-14,-0.00171652711822954,-7.76409775126278e-14,9.47360728663318e-08,1.9283672896312e-14,-0.00792748385820423
9000000000,2,0.016,0.002,-0.222630764180849,-7.02322620645026e-13,-1.7698107946393,-6.84593863368553e-12,-0.456702907810457,1.02368447758118e-12,1.90832398220965e-14,-0.00828877338095282,-1.17983615954714e-14,6.06313684409941e-08,5.6437917784913e-15,0.00404033818888979
9000000000,2,0.016,0.004,-0.41668088144245,-8.17592219368542e-13,-1.42242888096055,-5.60079200280119e-12,-0.85498228434368,-6.76807229534944e-13,2.31611970755653e-14,-0.00666286795275076,3.7445310942897e-14,-6.79597877632938e-08,2.59631853214327e-15,0.00324749130692586
9000000000,2,0.016,0.005,-0.401597274189882,-5.11989431586971e-13,-3.0816662926737,-1.17736932047305e-11,-0.823774570308892,-1.28560094520795e-13,7.33067275709652e-14,-0.0058909225284655,5.12562968659749e-14,4.68737664170664e-08,6.37495651107343e-15,0.00287188027071403
9000000000,2,0.016,0.007,-0.193413365371789,-1.51464675598474e-14,-2.7641006806178,-1.01623274484314e-11,-0.396510525003291,-4.84271424503467e-13,7.29430084094298e-14,-0.00528413765319477,1.84061937068926e-14,-3.09651704091686e-08,6.58461106972169e-15,0.00257607390023359
9000000000,3,0.009,0.003,1,0,5.45962544443627e-09,-9.97460345111822e-13,3.28169977467041e-10,3.17728832463743e-12,1.97375919989633e-15,-4.70685018642155e-08,-1.18990548076617e-14,-0.00342130490088851,-3.87176463373852e-15,-0.00242570116372864
9000000000,3,0.004,0.002,0.759518373270437,-2.2503295693169e-12,1.66905705062218e-06,7.99211613446353e-13,6.47995668433981e-10,2.50722429202373e-12,-1.37943130685716e-14,1.085145673397e-07,-3.72763301814349e-15,-0.00259853977847767,-3.00318208512725e-15,-0.00425906045324673
9000000000,3,0.004,0.004,1.09593695432772,-3.17463994898926e-12,7.11714156188485e-09,1.02677575515056e-12,1.76397406926754e-09,3.45654089695948e-12,-1.62192714816947e-14,8.73030523528872e-10,2.41030339041722e-15,-0.00374961994743417,6.38050217123704e-15,-0.000241428519245913
9000000000,3,0.004,0.005,1.0403923114829,-2.71217718326127e-12,-4.91684815369005e-07,2.63554799609436e-12,1.71892187365784e-09,3.31933903172314e-12,-4.87369804174384e-15,6.9513128760822e-10,3.81444787005641e-15,-0.00355961004947972,9.20549245785701e-15,0.00159324748584001
9000000000,3,0.004,0.007,0.637062947541242,-1.71022636657222e-12,-1.23016817680339e-06,3.1333188569729e-12,5.59572410473172e-10,1.55001148250078e-12,1.06582653494541e-14,-6.50761632489358e-08,1.03294841891246e-14,-0.00217959974046509,1.21986121445692e-14,0.0039019233601734
9000000000,3,0.011,0.002,0.759562521017116,5.84084454385052e-13,1.93519986739074e-06,-4.70003834015125e-13,-1.50798681295487e-10,2.24770568193087e-12,-1.29690633926616e-15,-2.71080370623927e-08,1.74585871451057e-14,-0.00259851102131823,-3.0266116697051e-15,-0.004258785875885
9000000000,3,0.011,0.004,1.09593208402844,6.74492918276556e-13,6.08124501998669e-09,1.39349365036111e-13,-4.74950891059443e-10,3.54532443087952e-12,-5.42237543220053e-15,1.45267219608041e-10,4.07611128948861e-15,-0.00374960316971278,-3.77772658202694e-15,-0.000241621462807513
9000000000,3,0.011,0.005,1.04039142224703,6.8905937428764e-13,-1.78720222181885e-07,6.67688186511041e-13,6.30338439383042e-12,3.28121823927046e-12,4.303873121846e-15,6.30440178835007e-10,-2.90981527128715e-15,-0.00355961088833418,-3.94677438108307e-15,0.00159326796282967
9000000000,3,0.011,0.007,0.637071924188053,6.01361598441277e-13,-2.10252756663832e-06,1.56292499566584e-12,-1.32596505858153e-10,2.12608634791445e-12,1.0253320117142e-14,-3.21913938335003e-08,-8.54508461119887e-15,-0.0021795563286633,-6.26714715733438e-15,0.00390194562966894
9000000000,3,0.016,0.002,0.759600378952805,1.36680087594287e-12,-3.25427577354251e-05,-1.2006218427182e-12,-5.31527076562831e-10,1.34485290467536e-12,-2.5571255954602e-15,2.48093151858679e-08,4.46104622348889e-15,-0.00259859550404802,1.20996845900709e-14,-0.00425924703387331
9000000000,3,0.016,0.004,1.09593462857547,2.15647715589195e-12,2.45239421000457e-07,-4.66212192503402e-13,-1.04950658090041e-09,2.08334098625144e-12,-2.82482917689599e-15,6.94504673891197e-10,1.04082572008016e-15,-0.00374961564162986,6.50701521630353e-15,-0.000241470242441166
9000000000,3,0.016,0.005,1.04039223356536,2.37502001952387e-12,5.25574801017219e-07,-3.9282600835245e-13,-1.3777273894328e-09,2.03072131614651e-12,1.68316340204122e-14,-7.20228720714998e-10,1.00795779852129e-14,-0.00355961055206593,4.59842633298243e-15,0.00159326202592874
9000000000,3,0.016,0.007,0.637063311429847,1.24490461256621e-12,1.44928490616504e-06,7.53225475914753e-14,-4.60122887708242e-10,1.14986118644046e-12,-1.1799503915876e-15,6.52922527803783e-08,4.9360674639052e-15,-0.00217959901909199,7.08949044790704e-16,0.00390192482843113
9000000000,4,0.009,0.003,-0.088856588895828,7.08828422284733e-13,-0.243654173253781,-3.97417854256395e-13,1,-0,7.44645061081981e-15,0.00155961682481316,-1.63056493237331e-14,1.15280752800832e-08,9.07401022366065e-15,0.000138657088937855
9000000000,4,0.004,0.002,-0.347397750304467,1.69725294764243e-12,-0.246324568920319,-1.24924106743811e-12,0.449664083812443,-1.35052312144664e-13,3.40861117595854e-15,0.00157659801496224,-2.09606113308936e-14,1.06115483998225e-08,6.46394532157174e-15,0.00121803525160041
9000000000,4,0.004,0.004,-0.508189501610354,2.08330872853643e-12,-0.023496274612881,-4.80326590282991e-13,0.657745361237656,1.74607111218371e-12,-2.79229830015177e-14,0.000150420332858154,5.38432552562919e-15,2.0692087125734e-08,-3.65576360268997e-15,0.000116225092688486
9000000000,4,0.004,0.005,-0.482906927743626,2.34076129783446e-12,0.158359910032457,-1.15611838398222e-12,0.625023580972798,1.07491633258412e-12,-3.3918786414115e-14,-0.000413727541363304,1.6909290094606e-14,3.64473381647268e-10,-1.08236456336031e-14,-0.000319659203640337
9000000000,4,0.004,0.007,-0.292010565059661,1.6564155121732e-12,0.356534559928244,8.29364424465463e-13,0.377965549959186,6.5241859796454e-13,-1.4282957191376e-14,-0.000931441572817119,1.21807907472607e-14,7.35912704701196e-09,-8.89466711930226e-15,-0.00071962488110046
9000000000,4,0.011,0.002,0.0672136076360534,2.22920043390172e-13,-0.413976076421621,-1.76887022732485e-12,0.755597993553494,-1.13308861913238e-13,-1.18901888372396e-14,0.00264905065767612,-4.08111100452976e-14,2.24605969271643e-08,1.01156311322646e-14,-0.000235513845505209
9000000000,4,0.011,0.004,0.0982642842685285,8.07476371075228e-13,-0.039515740300303,-9.74266494451977e-13,1.10524126213886,1.36975664139247e-12,3.67327925332567e-14,0.000252893466663077,2.67303974820561e-14,-1.29543250229267e-09,6.01316148111244e-15,-2.2488768239339e-05
9000000000,4,0.011,0.005,0.0933693930382338,9.31506688775897e-13,0.266104739767895,-5.68190316157682e-13,1.05026217141103,-1.86186597878802e-13,-2.0709596668602e-15,-0.000695233724412076,1.94139386190548e-14,-2.42137975329073e-09,2.69552040842904e-15,6.18127698842915e-05
9000000000,4,0.011,0.007,0.0564612296811611,2.27895617571689e-13,0.599105693612432,7.49049348325853e-13,0.635118786807083,3.11507271691325e-13,5.08999194747237e-14,-0.0015651483982588,-1.89610827282408e-14,4.00588750353046e-09,-3.6007962085212e-15,0.000139152049313325
9000000000,4,0.016,0.002,0.347482026036494,7.48584432717611e-13,-0.246334143776706,-6.47351776405404e-13,0.449668932859806,1.77046791838849e-12,2.36739610568189e-14,0.00157656381164587,-5.19821802939624e-15,-2.62574109009713e-08,-3.04932406668716e-15,-0.0012181129696336
9000000000,4,0.016,0.004,0.508184088085321,1.20006821212494e-12,-0.0235078194927863,1.56337415630691e-13,0.65774392520113,5.93958093790013e-13,-4.24128640166215e-14,0.000150478589136405,6.15533477002275e-15,1.8716320407835e-08,-6.48148434439253e-15,-0.000116258883426051
9000000000,4,0.016,0.005,0.482907071978757,1.20863240812502e-12,0.158360448890866,2.29051076356805e-13,0.625023530920551,1.11035043582126e-12,4.09338625823162e-14,-0.000413732336964127,-1.79911198365945e-14,2.53538218951132e-10,-5.61634881078252e-15,0.000319664581105542
9000000000,4,0.016,0.007,0.292011255117566,8.04266225527909e-13,0.356535070422977,7.63050770203106e-13,0.377965571607291,9.56488019838361e-13,6.70308851831435e-14,-0.000931442988112303,-4.50649089026237e-14,-7.35916399373321e-09,-1.44911149384621e-15,0.000719624637555856
9000000000,5,0.009,0.003,-0.291735271570528,7.42994743369255e-13,2.55362846684841e-05,-3.78194842414049e-12,1,0,1.46190620933225e-14,0.00242589766427469,-4.25517147358403e-15,0.000838737494167598,6.76737375016943e-15,0.000707957527466598
9000000000,5,0.004,0.002,-1.14644003822231,9.13120449170563e-12,-3.30088060025188e-05,-3.66429676035455e-12,0.452021054404885,-6.99430728731889e-13,1.43936680295335e-14,0.0025346849458847,1.28254631119504e-14,0.00329438587151455,6.45804311425798e-14,0.006428430630956
9000000000,5,0.004,0.004,-1.65419350026316,1.3512042837939e-11,-1.6483790049409e-05,-7.68047678667281e-13,0.652203899673024,8.92753942248878e-13,-2.09526619585689e-14,0.000143604371266515,5.16605267206347e-14,0.00475378605669296,8.77472135519661e-15,0.000364409760392452
9000000000,5,0.004,0.005,-1.57035051826595,1.34882549365674e-11,1.1173534664154e-05,5.20100909212936e-13,0.619148195870214,3.30498930590697e-13,-3.52556752348389e-14,-0.000948120332647908,5.70658936195932e-14,0.00451286311373514,-2.34522184088805e-14,-0.00240483341742848
9000000000,5,0.004,0.007,-0.96161010215513,8.85256691137637e-12,2.38173756485634e-05,3.99673413603199e-12,0.379136909718402,3.16505224608121e-13,-3.10846936473652e-14,-0.00232213570825625,3.84732545698725e-14,0.00276328137843846,-5.55637668742335e-14,-0.00588943040185415
9000000000,5,0.011,0.002,0.221814757169123,-3.33726642211864e-12,-8.46292750597206e-05,-5.97660027013927e-12,0.759558675450249,3.06533570661845e-13,1.95477989305045e-15,0.0042593017022836,-5.19842585649971e-14,-0.000636998031317285,-1.86725228760767e-14,-0.00124296561165725
9000000000,5,0.011,0.004,0.319857735524323,-4.02969819258645e-12,-0.000114585943140052,-1.06620738968042e-12,1.09592918621213,2.03508043049623e-12,3.12868213362159e-14,0.000241639058645795,1.04668684877199e-14,-0.00091920029965479,-9.28270522724425e-16,-7.05466084351929e-05
9000000000,5,0.011,0.005,0.303630540313311,-3.46047369470919e-12,3.75411925323155e-05,3.39055660553743e-12,1.04038938902797,7.16054860307513e-13,-1.6228371725653e-14,-0.0015932425096252,6.47659573131955e-15,-0.000872593773423865,2.83569177782902e-15,0.000465026005975438
9000000000,5,0.011,0.007,0.185929019995125,-1.6127350075502e-12,3.40210758003626e-05,7.54058980479017e-12,0.637087160270332,6.25478205393803e-13,1.72340273552454e-14,-0.00390206680376597,-1.87326267122134e-14,-0.000534253109661253,3.97230724703035e-16,0.00113882827248959
9000000000,5,0.016,0.002,1.1466071374687,-8.99180838143262e-12,-3.11868096987422e-05,-2.44335079955917e-12,0.452026149721027,2.3400475541272e-12,2.20859484093771e-14,0.00253475500042754,-4.65927076359832e-14,-0.00329448210640643,-5.74679879707421e-14,-0.00642887131686691
9000000000,5,0.016,0.004,1.65417522798113,-1.19284534507819e-11,-6.0266118165516e-05,9.3068264364764e-13,0.65220231037358,2.00478792180912e-12,-4.36444704560484e-14,0.000143710011300941,-5.34137196289085e-14,-0.00475371954887241,7.18348697443157e-16,-0.000364589783847736
9000000000,5,0.016,0.005,1.57035072313093,-1.0628578688282e-11,1.24007294076419e-05,4.40688789386907e-12,0.61914814974506,2.30832083905996e-12,1.90719063536717e-14,-0.000948126416387908,-7.22592397440135e-14,-0.00451285921519091,2.75347035979019e-14,0.00240486435378628
9000000000,5,0.016,0.007,0.961611559284563,-5.93402970981556e-12,2.45429478975841e-05,6.81356632733037e-12,0.379136932127287,1.53137607149254e-12,4.00193501488509e-14,-0.00232214055582659,-7.10966603892053e-14,-0.00276328224539874,6.14975832260038e-14,0.00588942832410278
10000000000,1,0.009,0.003,-0.0471275754105575,-3.8437316977654e-15,1,0,-2.05019122076289e-15,0.399311529867633,-0.00415707267143223,-1.61247549302713e-17,-3.25463445617918e-09,-2.12737680905806e-17,-2.05828451480935e-17,0.000490489181512948
10000000000,1,0.004,0.002,-0.167839885373605,-1.35902307083253e-15,0.661113470923022,4.62021359149668e-15,-6.75835722439398e-16,0.163675633467823,-0.00274831972826332,-8.91547080347945e-18,-1.83156396119363e-08,-9.33384486445844e-18,-4.89317648297258e-17,0.00281792420165502
10000000000,1,0.004,0.004,-0.310144809700846,-2.66480474002187e-15,0.506275974050637,3.19254837138864e-15,-2.0320082339766e-15,0.302478348543614,-0.00210462394579954,-3.13820807481676e-17,-3.6777833991531e-09,1.42092362809074e-17,-2.98310951299918e-17,0.00215797039570603
10000000000,1,0.004,0.005,-0.296208724754089,-4.71981031934755e-15,1.06236305918857,1.02015481786551e-14,-1.95166780588316e-15,0.288893357284501,-0.00180255304071644,-3.17446219618372e-17,-4.36995329740669e-09,7.55967193292009e-18,-2.30190393731492e-18,0.00184826884121378
10000000000,1,0.004,0.007,-0.14097402983782,2.8047471941229e-17,0.923745638533707,9.876235485974e-15,-8.91770661120544e-16,0.137457656311176,-0.00156736704218602,-1.30669030016709e-17,3.98413609452424e-09,4.3971147321079e-18,-2.21726227770849e-17,0.00160710322086454
10000000000,1,0.011,0.002,0.0324577898421273,5.6265816029906e-16,1.11091542574634,8.59618327755699e-15,-1.30127821748939e-15,0.27503368545889,-0.00461805734440429,-1.99385465168241e-17,-1.28745916877796e-08,-5.56444985510037e-18,-1.59102529639528e-17,-0.000544888541992337
10000000000,1,0.011,0.004,0.0599711663707406,1.90735486148119e-16,0.850725825013976,6.09603995203788e-15,-3.3326676773556e-15,0.508271422059589,-0.00353660032082235,-9.33939033014824e-18,3.19892940923125e-10,1.60510879450651e-17,-3.13884971733745e-18,-0.000417277862925791
10000000000,1,0.011,0.005,0.0572740421908981,-2.95309826933692e-15,1.78514904536076,1.52763700683824e-14,-2.70729175957346e-15,0.485443770975258,-0.00302895770817052,-3.38470388981913e-17,-1.41840823005501e-09,-8.14881356657459e-18,1.76555590140376e-17,-0.00035738245305988
10000000000,1,0.011,0.007,0.0272523731953383,-3.09311143759927e-15,1.55221309118918,9.7282075728647e-15,-9.20634015057865e-16,0.230978102401334,-0.00263373225004775,5.0065303708555e-19,-7.38147652030207e-10,-7.48033058441433e-18,-3.9787609184154e-17,-0.000310741525388505
