#frequency,mode,x,y,Ex_re,Ex_im,Ey_re,Ey_im,Ez_re,Ez_im,Hx_re,Hx_im,Hy_re,Hy_im,Hz_re,Hz_im
9e+09,1,0.009,0.003,-0.0488178003192803,-9.05938599075356e-13,1,0,1.97597746276217e-12,0.340836052655268,-0.00388503047388652,1.2786674312866e-13,-5.31301703496728e-13,-1.08807902349275e-13,1.15919918909317e-14,0.000556451233788439
9000000000,1,0.004,0.002,-0.172972982347045,1.0932005626696e-12,0.649220298289169,-2.47185248700041e-12,-1.37537468668427e-12,0.138969389558005,-0.00252224063952665,-2.67049848190807e-13,8.56372601546153e-13,-8.08454361498646e-14,-1.15613401590928e-14,0.00313939269749157
9000000000,1,0.004,0.004,-0.32382064970988,1.3112182983873e-12,0.521818730212131,-2.37025083973768e-12,2.14345450428064e-12,0.260162930113773,-0.00202728166877818,-1.53160672578655e-13,-6.8842939769565e-13,-1.95226092958279e-13,-9.772428397981e-15,0.00252332516101914
9000000000,1,0.004,0.005,-0.312000950296863,1.08301540482737e-12,1.13047058686727,-5.29153364730647e-12,8.17446215390783e-13,0.250666785424075,-0.00179261742030739,1.0342608781392e-13,-5.33168864483828e-13,-2.72859658666702e-13,-8.0867397633738e-15,0.00223124231292938
9000000000,1,0.004,0.007,-0.150176642216656,2.7508968603758e-13,1.01397325792938,-3.77112069042993e-12,3.71162508906683e-12,0.120654428015891,-0.00160788449300564,-3.34444716987184e-14,5.42170948476706e-13,-2.72126187412768e-14,-7.91655310882144e-15,0.00200130818330669
9000000000,1,0.011,0.002,0.0334466840553464,-1.12140252068032e-12,1.09092107330048,-4.99227522174088e-13,-5.35361780571457e-13,0.233518015588016,-0.00423826161261607,-1.83191771213829e-13,-6.87799070021862e-13,1.28287781522497e-13,5.57554032862672e-15,-0.00060704437541143
9000000000,1,0.011,0.004,0.0626151372741571,-1.22784010229227e-12,0.87684111417525,-1.49322984895777e-12,-3.61084837343706e-12,0.437166280922712,-0.00340655444944824,-4.1692475793323e-14,-1.59687228746619e-13,6.90264604690796e-14,4.86392400652211e-16,-0.000487919320070651
9000000000,1,0.011,0.005,0.0603296371786863,-1.63148844219739e-12,1.8995927740467,-3.54165166703246e-12,-1.27353895382559e-12,0.421209379397793,-0.00301223502608875,-1.92813146370922e-13,2.95232846230585e-13,-2.55667575387763e-14,-2.15657834776787e-15,-0.000431441119160018
9000000000,1,0.011,0.007,0.0290387021473314,-1.2706891562554e-12,1.70383581373031,-1.42366908390363e-12,-2.80750695250911e-12,0.20274236436379,-0.0027018179815462,1.03974352344653e-13,4.11393113646101e-13,-8.2801215649715e-14,1.13130331831467e-14,-0.000386980220876274
9000000000,1,0.016,0.002,0.172972982347567,2.07001120070234e-12,0.649220298294302,6.31138699041632e-12,1.17101311187257e-12,0.138969389558338,-0.00252224063941333,9.55271954899529e-14,-9.6035645782876e-13,7.64778038563663e-14,-1.71918595484033e-14,-0.00313939269745648
9000000000,1,0.016,0.004,0.323820649708739,-2.43388763956216e-14,0.521818730215449,3.48513286141007e-12,2.07729535648634e-12,0.260162930116809,-0.00202728166897443,7.3410101272647e-14,6.69880604688528e-13,-1.72582363250699e-13,-1.6359270933606e-14,-0.00252332516110639
9000000000,1,0.016,0.005,0.312000950302304,-3.98425374785569e-13,1.13047058686316,9.70818606556312e-13,-1.8690408321874e-12,0.250666785427106,-0.00179261742000179,-1.12226727212662e-13,-3.61473064869454e-13,7.16259770123878e-14,-1.36830465718603e-14,-0.00223124231289082
9000000000,1,0.016,0.007,0.150176642217227,2.11382980825916e-13,1.01397325792687,6.64732826331577e-13,1.2570504900738e-12,0.120654428017304,-0.00160788449288269,2.11763882621004e-13,-2.08422715745696e-13,3.46941574418391e-14,-3.99558724681281e-15,-0.00200130818348381
9000000000,2,0.009,0.003,1,-6.16142672422149e-28,0.527084627863201,3.19751850482133e-12,0.216577200934027,-7.19505908779176e-12,-8.8754094520147e-14,0.00246866205089337,1.03971146225326e-13,-4.58899764052783e-12,-7.84361773327024e-15,-0.0113985314794559
9000000000,2,0.004,0.002,-0.222613148296654,-4.70366494355993e-12,1.76969183305622,2.6004983573793e-12,0.456679550709589,-5.60472538490529e-12,2.72227469653181e-13,0.00828855690298503,-5.62250481849952e-14,-4.99251636782477e-12,-2.2016568735731e-14,0.00404034338659079
9000000000,2,0.004,0.004,-0.41675149840399,-5.59680218788761e-12,1.42241137903493,1.28804514463974e-12,0.854944314090682,-3.25114974400153e-12,-1.1664799779115e-13,0.00666202883967988,3.09345596903665e-14,2.82606134552951e-11,4.71652990294424e-15,0.00324747525996607
9000000000,2,0.004,0.005,-0.40153976595285,-5.01727313967411e-12,3.08151878911334,-6.8200754382229e-13,0.823738196421215,-2.50748811956378e-12,-1.44283459900388e-13,0.00589087795476678,1.2897954133122e-14,2.82064905732489e-12,1.21346103515674e-14,0.00287156972082301
9000000000,2,0.004,0.007,-0.193274632402484,-1.6403543101776e-12,2.76396190662844,-2.1767822667282e-12,0.396493141120718,1.13756897941693e-12,-1.47769664062382e-13,0.00528381081507234,1.66844113513589e-14,-4.16243471742864e-11,1.70686640352318e-14,0.00257564851199213
9000000000,2,0.011,0.002,0.685132962160141,-6.4118841664677e-13,-0.575007721825793,3.45461029346488e-12,-0.148384180132913,-5.63293028756111e-12,-1.2213124088731e-13,-0.00269311543919524,-1.53302207626994e-13,1.94982844947099e-11,1.41914912334401e-15,-0.0124348980931726
9000000000,2,0.011,0.004,1.28262921803707,-8.12447989216275e-13,-0.462169472280288,2.39765456402096e-12,-0.2777882464591,-2.15881328575834e-12,8.02794454331092e-14,-0.00216462441073056,1.46117929907422e-13,5.89719332055663e-12,-1.17615518050987e-14,-0.00999470104405761
9000000000,2,0.011,0.005,1.2358122627223,-1.58079297719577e-12,-1.00124615407117,6.43501835659834e-12,-0.2676487646062,-2.75980907656077e-12,-9.35681286642329e-14,-0.00191406228157271,-7.23331055928889e-14,1.19709005311741e-11,-1.68568302592768e-14,-0.00883778283246807
9000000000,2,0.011,0.007,0.594838340383832,-2.39379382036982e-13,-0.898065659327426,7.01520509259678e-12,-0.128828430573818,-2.68964610797489e-12,-1.13194933196425e-13,-0.0017168142225463,1.21626302513063e-13,2.02015380750459e-11,-2.28645863385626e-14,-0.00792703084972265
9000000000,2,0.016,0.002,-0.222613148295869,-2.07700245812878e-13,-1.76969183306008,-4.05984305653529e-12,-0.456679550680953,-6.76870961564466e-12,3.9625727454084e-14,-0.00828855690279947,-5.23081140307261e-13,-5.84912859238964e-12,1.33393632047664e-14,0.00404034338653743
9000000000,2,0.016,0.004,-0.416751498400407,1.83238936718759e-12,-1.42241137904267,-5.70925128332377e-13,-0.854944314074642,7.5463582900732e-12,-1.91905056608326e-13,-0.00666202883981393,-1.25618196065194e-13,2.85466044304427e-11,2.07766782752276e-14,0.00324747526025869
9000000000,2,0.016,0.005,-0.401539765481008,2.69504903994785e-12,-3.08151878883724,7.0034249890626e-12,-0.823738196421997,7.50000212858935e-12,2.56731095054662e-13,-0.00589087795380594,1.77636773693301e-13,-3.33499564175034e-13,3.00702702319376e-14,0.00287156972060662
9000000000,2,0.016,0.007,-0.193274633004187,2.1770907032793e-12,-2.76396190697834,7.3674082595379e-12,-0.396493141093614,-3.45781204351368e-13,-4.27285688566747e-15,-0.00528381081578209,7.41610964664075e-15,-4.00170592506879e-11,2.28395744416662e-14,0.00257564851339161
9000000000,3,0.009,0.003,1,0,-3.43605467415301e-09,2.50702227516243e-12,8.75773942758063e-13,4.38227637265515e-12,-8.23842891718989e-15,-6.67419064044229e-12,-7.81483206065383e-14,-0.00342138476675492,5.444054461751e-14,-0.00242549729813821
9000000000,3,0.004,0.002,0.759559405471985,-9.94834333392205e-12,1.0413851527803e-08,1.22736132890715e-11,-2.36598995140942e-12,5.99428073800233e-12,-9.21922572531308e-14,1.32220166046409e-12,-4.07476383299974e-14,-0.00259874503128575,-7.27415895035985e-14,-0.00425895461785759
9000000000,3,0.004,0.004,1.09593363375071,-1.5211482243728e-11,-6.64941666947053e-10,9.43080946038131e-12,-4.27089774232987e-12,9.63325335826237e-12,-6.4829176877358e-14,-8.44765359895881e-12,-5.05674183298355e-14,-0.00374961066963342,-2.47172718468268e-14,-0.000241538781119034
9000000000,3,0.004,0.005,1.04038851761763,-1.46803776737452e-11,1.13909814630208e-10,2.03965005658085e-11,-3.94282586649706e-12,1.00025015446553e-11,-1.35084789674082e-14,1.88499843527078e-12,-8.95135839232185e-14,-0.0035595694440829,-3.20908587620284e-16,0.00159326928615901
9000000000,3,0.004,0.007,0.637086179003448,-8.96399928844304e-12,-2.52833249072158e-09,1.81000776608758e-11,-1.91351847600157e-12,4.71591664624277e-12,-5.36510384268952e-14,-2.59801278889439e-13,-2.02103608110086e-14,-0.00217971696757952,3.2040153358677e-14,0.00390187914935563
9000000000,3,0.011,0.002,0.759559403077027,4.67373522299262e-13,-7.58679511712172e-09,-4.13754157561766e-12,2.45141389062871e-12,8.07892832382348e-13,-4.68484973652562e-15,-1.02986162504075e-11,-9.09968242333423e-15,-0.00259874498978359,4.27986603482242e-14,-0.00425895457521487
9000000000,3,0.011,0.004,1.09593363068062,1.69067051925537e-12,1.05065252284888e-09,-2.71887672666971e-12,2.62877150923754e-12,1.37344808888247e-12,9.33902222487214e-14,3.51841239120528e-12,-1.60275381515273e-14,-0.00374961063441848,5.20581971120054e-14,-0.000241538775251772
9000000000,3,0.011,0.005,1.04038851657954,1.2445998795068e-12,7.93316491500267e-12,-5.85837479965989e-12,2.21176010840873e-12,4.55843808919397e-13,-6.5448716840752e-14,6.72248659278818e-14,-2.62561310165395e-14,-0.00355956943502014,5.62172594443664e-14,0.0015932692841266
9000000000,3,0.011,0.007,0.637086178321844,-5.26466336758614e-13,7.96038366937401e-10,-4.65232951591092e-12,1.53177237510459e-12,8.3059691992996e-13,-1.37341914770868e-14,1.79270656560005e-12,6.00251742878881e-15,-0.00217971696756026,7.32509188689612e-14,0.00390187915260783
9000000000,3,0.016,0.002,0.759559405462994,-4.01577640715201e-12,-1.04197709049867e-08,-9.00582305679924e-12,6.90832196691126e-12,-2.91755265809401e-12,6.677682169528e-14,-1.36581994065059e-12,-5.01469557849669e-14,-0.00259874503134471,-3.43628757975833e-14,-0.00425895461776539
9000000000,3,0.016,0.004,1.09593363373545,-5.88276049552365e-12,6.61487888401927e-10,-6.1051655801651e-12,1.05784144536784e-11,-4.36882998123303e-12,3.45735427262919e-14,8.42907913271422e-12,-6.90203892629238e-14,-0.00374961066952685,-2.09445531715413e-14,-0.000241538781111675
9000000000,3,0.016,0.005,1.0403885176214,-5.87591431491824e-12,-1.35276477428976e-10,-1.98732741065834e-11,8.70852753072504e-12,-3.63162597355006e-12,5.79105073903852e-14,-2.23738607365875e-12,3.63036907641021e-14,-0.00355956944429759,-1.72189130442713e-14,0.00159326928661468
9000000000,3,0.016,0.007,0.637086178975704,-3.4490796508452e-12,2.4161344681711e-09,-1.80653198263056e-11,4.38343660602437e-12,-2.51561191759989e-12,6.96717539220712e-14,3.88413041430138e-13,-2.32735641849153e-15,-0.00217971696672345,-3.3192318425506e-15,0.00390187914876783
9000000000,4,0.009,0.003,-0.08890812598383,4.99912818810337e-13,-0.243640765104012,5.53812293813428e-12,1,-0,-2.53673043075635e-13,0.00155945703511356,3.72000495250334e-14,2.82996609744448e-12,4.60126315040568e-14,0.000138648410497302
9000000000,4,0.004,0.002,-0.347422465901404,-5.44590790612169e-12,-0.246302056229594,3.73102873058876e-12,0.449665943199974,-1.66657097578788e-12,2.11393434068951e-13,0.00157649093840671,8.70606999885041e-14,1.74869730226692e-12,-7.50643829656167e-14,0.00121803385028679
9000000000,4,0.004,0.004,-0.50818917398965,-8.84808504774759e-12,-0.0235083979082362,8.53844646856329e-13,0.65774491805802,1.88351411884064e-12,1.93516418142389e-13,0.000150468811138513,1.22511806510063e-13,8.09778437115453e-12,-3.26433061773613e-14,0.000116255755035792
9000000000,4,0.004,0.005,-0.482907639553819,-9.10001972358086e-12,0.158365967650167,-1.05925966991564e-12,0.625023247016521,-9.04926291076146e-13,1.51333972863253e-13,-0.000413732112712635,1.96401501639423e-13,8.79069959640673e-13,-7.88690601141129e-15,-0.000319659149765926
9000000000,4,0.004,0.007,-0.292025639971724,-5.89860187776785e-12,0.356518806843199,-1.75712565761168e-12,0.377966302727327,3.56574293769958e-12,5.16419507567685e-14,-0.000931407678324352,-5.54679284432633e-17,-6.92864223265678e-13,3.01187424168817e-14,-0.000719627434835151
9000000000,4,0.011,0.002,0.067178872715451,2.09898275592713e-12,-0.413875045702569,2.81296302647164e-12,0.755598758810975,-2.81259430124164e-13,1.91999996556089e-13,0.00264906549282854,-1.16723598210785e-13,5.85034020444479e-12,6.53068215106901e-14,-0.000235523428124911
9000000000,4,0.011,0.004,0.0982653039086811,5.70687038254382e-12,-0.0395024736172545,-2.84644136365071e-12,1.10524546869632,-3.9774729798765e-12,-3.79109466243048e-14,0.000252841147885224,-1.06689734811991e-13,4.10245583151735e-13,4.58768558352177e-14,-2.24796399404134e-05
9000000000,4,0.011,0.005,0.0933767756745162,5.51549617707492e-12,0.266111167059649,-9.58426533990098e-12,1.05026141988377,-2.99321109003087e-12,1.27388296067835e-13,-0.000695217146006454,9.27519926027729e-14,-3.98063983821108e-13,2.83095732189374e-14,6.18104505638106e-05
9000000000,4,0.011,0.007,0.0564671395035783,2.69429055678028e-12,0.599078419767952,-1.11507554489625e-11,0.635117856974214,-3.00765700240808e-12,-5.88274543719887e-14,-0.00156509625018464,3.52396442298088e-14,9.10733012289303e-13,9.21053626188025e-15,0.000139149773979327
9000000000,4,0.016,0.002,0.34742246590075,1.08820771842674e-11,-0.246302056223366,4.89674290297983e-12,0.449665943192004,-1.47332027666239e-11,-2.8185110024424e-14,0.00157649093862042,-3.65789239484658e-13,-1.47799804099744e-12,1.67023119261532e-14,-0.00121803385048374
9000000000,4,0.016,0.004,0.508189173989297,1.09817200861569e-11,-0.0235083979059579,-3.59264582243072e-13,0.657744918053336,-1.44500306665801e-11,-1.33708636974523e-13,0.000150468811062453,3.16560463764783e-13,-8.25810740870507e-12,-3.00149514059419e-14,-0.000116255755081812
9000000000,4,0.016,0.005,0.482907639578974,1.02240874713441e-11,0.15836596760719,-7.84297946273917e-12,0.625023247013146,-1.08423722182254e-11,3.51077011494795e-15,-0.000413732113201134,-1.21627831518748e-13,-9.49903250101298e-13,-4.78450566732277e-14,0.0003196591500815
9000000000,4,0.016,0.007,0.292025639798974,7.11172731198554e-12,0.356518806217394,-9.93430529515153e-12,0.37796630271109,-8.52715580645374e-13,-1.06290913102971e-13,-0.00093140767736631,6.58706957677758e-15,4.38129330657251e-13,-7.21129451607218e-14,0.000719627434815703
9000000000,5,0.009,0.003,-0.291860827440907,9.94208795268082e-12,-1.43817653200399e-09,-1.31110090765584e-11,1,-0,-1.69672246646768e-13,0.00242549728663879,7.96162632029069e-14,0.00083874260496877,5.98706511256592e-14,0.000707907686433424
9000000000,5,0.004,0.002,-1.14647015574046,5.66005194496084e-11,-3.04485878951101e-08,-2.01982901407659e-11,0.452022970520669,-3.70214548243225e-12,3.51861445922058e-13,0.00253455549307311,3.34524883710462e-13,0.00329469853707227,3.26877573988545e-13,0.00642841671770775
9000000000,5,0.004,0.004,-1.65418952994215,8.02871726586466e-11,3.94486150379531e-09,-4.19932492400198e-12,0.652203331299175,-3.24750944683972e-13,1.9795260466058e-13,0.000143742619632934,5.0232499866435e-13,0.00475377017262624,-1.44028291569122e-14,0.000364575884396847
9000000000,5,0.004,0.005,-1.57035037263695,7.56214382164354e-11,-5.54142993786086e-10,5.61196892017413e-12,0.61914776324879,-2.19024730262767e-12,1.07706581028052e-13,-0.000948173774749594,5.25606641343213e-13,0.00451283518195555,-1.69502673796725e-13,-0.00240486221821424
9000000000,5,0.004,0.007,-0.961610490160188,4.59397916282809e-11,9.39325025816421e-09,2.23833541869398e-11,0.379137674757293,2.59130822107827e-12,-8.39001543419365e-14,-0.00232205543372296,2.19021396469731e-13,0.00276345317242707,-3.66256002390385e-13,-0.00588945117212844
9000000000,5,0.011,0.002,0.221685635080031,-1.42228986700935e-11,-8.98734836658542e-09,-2.69848410602331e-11,0.75955940294979,5.60716491397144e-13,2.9104536358356e-13,0.00425895460359112,-1.95980333087345e-13,-0.000637074930194992,-4.46778246852354e-14,-0.00124302187999301
9000000000,5,0.011,0.004,0.319860095912975,-1.71837024065778e-11,1.6832404187348e-09,-4.75789126352517e-12,1.09593363140633,-1.15204490936716e-12,3.73999622666117e-14,0.000241538767279894,-1.79734619665658e-13,-0.000919206255721564,3.05436427656594e-14,-7.04957472978957e-05
9000000000,5,0.011,0.005,0.303648653398429,-1.6396938447956e-11,-8.99981387299957e-11,1.35819360664559e-11,1.04038851682583,-3.05725736109558e-13,-5.86962271043717e-15,-0.00159326928041201,6.08267493982977e-15,-0.00087261820709632,5.86012068192277e-14,0.000465012864109503
9000000000,5,0.011,0.007,0.18594050092754,-1.07836430027524e-11,-3.15608371483521e-10,3.82379933055656e-11,0.637086178615073,-1.81346130792823e-12,-2.93718007301175e-13,-0.00390187917272993,2.17610081309317e-14,-0.000534351346401617,9.98913912101243e-14,0.00113880566338809
9000000000,5,0.016,0.002,1.14647015574524,-4.86810506823609e-11,-3.0438300238807e-08,-1.15000794242517e-11,0.452022970515998,-1.43972590512274e-11,2.73134929247802e-14,0.00253455549324599,-7.01085844074053e-13,-0.00329469853718536,-3.68297233079445e-13,-0.00642841671782846
9000000000,5,0.016,0.004,1.65418952994984,-7.63061212844023e-11,3.9488736696215e-09,7.93255449082526e-13,0.652203331294514,-9.62360406725351e-12,-1.75842059559623e-13,0.000143742619627905,-1.04626188072493e-13,-0.00475377017276778,-4.4131426481899e-14,-0.000364575884540633
9000000000,5,0.016,0.005,1.57035037263575,-7.29576637581291e-11,-6.34031348280983e-10,7.02872682271496e-12,0.619147763242821,-6.36667599524437e-12,-4.91928846098946e-15,-0.000948173775202367,-4.12429603378243e-13,-0.00451283518264529,1.12840300791129e-13,0.00240486221948387
9000000000,5,0.016,0.007,0.961610489935869,-4.37770837208813e-11,8.56022050490239e-09,2.00219280675803e-11,0.37913767473859,2.99594041346905e-13,-2.17247217358291e-13,-0.0023220554296181,-2.01560741245239e-13,-0.00276345316846253,3.26629756313672e-13,0.00588945117163308
10000000000,1,0.009,0.003,-0.0471147031204356,4.67819021109787e-14,1,0,8.37109689474165e-15,0.399312998360715,-0.00415706032258693,-2.50411503373756e-16,-4.46823078931706e-13,5.18097705552728e-16,2.03280052132788e-16,0.000490489074730827
10000000000,1,0.004,0.002,-0.167824767618791,2.41639549142643e-15,0.661114059221766,-1.70976639097858e-14,-1.52835430813215e-15,0.163676601667429,-0.00274829101982817,6.10118394546547e-17,1.13036778394894e-12,1.56410004433322e-17,1.02266517785601e-17,0.0028179428104438
10000000000,1,0.004,0.004,-0.310145680101727,4.96727662282741e-15,0.506281784868246,-1.91369532468053e-14,-1.08338927887296e-15,0.302479732549531,-0.00210464391994536,8.3157354901828e-17,-9.59672445980458e-13,8.32776918399802e-17,5.16396426846212e-17,0.00215798333017089
10000000000,1,0.004,0.005,-0.296216165311521,5.17049421343672e-15,1.06237319911795,-6.11742189711298e-14,-4.51571928011293e-16,0.288894516481703,-0.0018025916221703,4.99912603171131e-17,-4.0150941783038e-13,5.39140010742666e-17,7.3586233543945e-17,0.00184827591624173
10000000000,1,0.004,0.007,-0.140942066613026,-7.99524946587372e-15,0.923745678977798,-3.13459879154572e-14,-2.18252468829763e-15,0.137458366490848,-0.00156737408621707,5.95812896763565e-17,5.49527382435705e-13,4.09551605950347e-18,6.66935582509345e-17,0.00160709710283312
10000000000,1,0.011,0.002,0.0324512064661244,-5.49622098885043e-14,1.11090682243089,1.88821039907404e-14,-3.35640744462179e-15,0.275034921983139,-0.00461810667124852,-9.21790683550518e-17,-1.10192100104716e-12,-2.35676797624397e-17,2.34726953494639e-16,-0.000544887657051414
10000000000,1,0.011,0.004,0.0599708955081419,-4.44446010621697e-14,0.850733518268487,-2.08416515502727e-14,-3.40577770650936e-15,0.508273564088738,-0.00353655055430949,-7.0161250845904e-17,-1.18173568087652e-13,-2.35729913605748e-16,6.52776430625216e-17,-0.000417275496451523
10000000000,1,0.011,0.005,0.0572774338318656,-2.62037391741796e-14,1.78516493540443,-6.32247737842014e-14,-9.2800235769514e-15,0.485445567888234,-0.00302899523253042,7.43607887643743e-17,3.65036027464387e-13,-1.72437615863564e-16,5.90333371664763e-17,-0.00035738934541256
