#frequency,mode,x,y,Ex_re,Ex_im,Ey_re,Ey_im,Ez_re,Ez_im,Hx_re,Hx_im,Hy_re,Hy_im,Hz_re,Hz_im
9e+09,1,0.009,0.003,-0.04881779978622,1.46684433773195e-13,1,-8.79524146298587e-29,2.07879825601553e-12,0.340836052716072,-0.00388503047287082,1.1974025270887e-13,3.26987296872858e-13,-1.00890680840942e-13,-1.66631030935606e-14,0.000556451234027035
9000000000,1,0.004,0.002,-0.172972982358223,-4.42751539230236e-13,0.649220298442903,-1.74685383867267e-13,2.04034352250898e-12,0.13896938958345,-0.00252224064011429,-8.29684619885994e-14,9.15558665630747e-13,-1.39322497763607e-13,1.53092556721156e-14,0.00313939269812433
9000000000,1,0.004,0.004,-0.32382064976747,1.85393357251588e-13,0.52181873029674,2.49317899845132e-14,-1.36203881164835e-12,0.260162930157395,-0.00202728166947228,-1.58861267212097e-13,-7.33647015198273e-13,-8.67880927673643e-14,1.68052498778806e-14,0.00252332516148344
9000000000,1,0.004,0.005,-0.312000950346581,-7.7912912274872e-13,1.13047058705353,2.35158996654317e-12,-1.07588194898918e-12,0.250666785466842,-0.00179261742093174,-1.58832162603691e-13,5.12702551436128e-14,-4.45971865122874e-14,1.28824619365356e-14,0.00223124231319594
9000000000,1,0.004,0.007,-0.150176642239386,-2.34365992811606e-12,1.01397325809758,1.95597600704711e-12,-4.40280422919002e-12,0.120654428038545,-0.00160788449352986,-5.49980098080195e-14,4.66452771923087e-13,5.14003947311325e-14,8.71768461301945e-15,0.00200130818381442
9000000000,1,0.011,0.002,0.0334466841478833,1.03527463228142e-12,1.09092107331061,2.81365696930458e-12,8.04507553959864e-14,0.233518015649901,-0.00423826161538597,-2.28609202946363e-13,9.51210892870056e-13,3.50018688455785e-13,-7.55932603932588e-15,-0.000607044377137585
9000000000,1,0.011,0.004,0.0626151372734681,1.45645375348706e-12,0.876841114164889,1.29040549201338e-12,-1.56945805444366e-13,0.437166281002621,-0.00340655444825623,1.88629704562614e-13,1.32980959692287e-13,6.4940813957076e-14,-1.28717843581773e-14,-0.000487919319600341
9000000000,1,0.011,0.005,0.06032963718994,9.02930988202105e-13,1.89959277434531,7.50941727162451e-13,1.21423800014839e-12,0.421209379477553,-0.00301223502602671,1.04287968066619e-13,6.46194138400465e-13,-2.00373739015754e-14,-1.85852093006766e-14,-0.000431441119200511
9000000000,1,0.011,0.007,0.0290387021568034,-5.96720506582389e-14,1.70383581399578,-2.92007047003818e-13,1.63117214139665e-12,0.202742364399597,-0.00270181798176471,-3.28801441098559e-15,8.26444503091266e-13,1.49127793387844e-13,-1.60897312679346e-14,-0.000386980220916359
9000000000,1,0.016,0.002,0.172972982768698,2.06638850271598e-13,0.649220297213212,-3.55727679826728e-12,2.37677040767922e-13,0.138969389548485,-0.00252224063551906,4.3604066608906e-14,-1.02667877888325e-13,4.56657101503569e-14,2.41903553216415e-14,-0.00313939268673641
9000000000,1,0.016,0.004,0.323820649737104,4.3398198245591e-13,0.521818730491406,-1.7798520052708e-12,2.48576195365459e-12,0.260162930166213,-0.00202728167166981,1.62273608798753e-14,-2.88426402905593e-13,6.70197164877845e-14,1.20315755795299e-14,-0.00252332515997315
9000000000,1,0.016,0.005,0.312000950351714,3.76863724184914e-12,1.13047058704001,-2.96350686949434e-12,1.84160092768659e-12,0.250666785466815,-0.0017926174205468,-7.70504941511868e-14,2.3454101273128e-13,3.41324799589966e-14,1.48712679376393e-14,-0.00223124231367804
9000000000,1,0.016,0.007,0.150176642242996,-4.73956230531808e-13,1.01397325808902,-6.51331737772969e-13,1.87976609118997e-12,0.12065442803469,-0.00160788449326389,1.19983189460345e-13,-4.9932937238668e-13,-6.66312174886953e-14,6.60836333481889e-15,-0.00200130818381659
9000000000,2,0.009,0.003,1,-0,0.527084590955145,1.14458707024327e-12,0.216577186019728,-1.34816511683268e-12,-2.02147587780027e-14,0.00246866192413268,-1.61963556006851e-14,-8.1959661759919e-11,-2.98404594164292e-14,-0.0113985311649749
9000000000,2,0.004,0.002,-0.22261313251702,5.70815510978761e-12,1.76969171160827,-7.97064266200396e-12,0.456679519413948,2.01733807775604e-12,3.30852005716486e-14,0.0082885563377161,5.78579205913224e-14,-6.37077583003244e-12,2.30879454738522e-14,0.00404034311321758
9000000000,2,0.004,0.004,-0.416751470074929,4.29402190316002e-12,1.42241128093614,-7.22301217730003e-12,0.854944255304034,1.5613035939531e-12,1.68354417992629e-14,0.00666202838321566,1.74001177918282e-14,2.92903517111592e-11,-1.11873072649686e-14,0.00324747503474473
9000000000,2,0.004,0.005,-0.401539738340844,4.26801690084039e-12,3.0815185771721,-1.31910007894718e-11,0.823738139774164,4.28314393233705e-12,5.57924358499343e-14,0.00589087754892881,2.64412311017233e-15,1.46139412644003e-12,-1.38915384064076e-14,0.00287156952279769
9000000000,2,0.004,0.007,-0.193274619112244,-2.92974878320183e-12,2.76396171652902,-8.01114180273726e-12,0.396493113856834,7.72508692004206e-13,6.34438324646807e-14,0.00528381045252926,-2.5483639329593e-15,-4.14039683263429e-11,-3.60506625193075e-16,0.00257564833545519
9000000000,2,0.011,0.002,0.685132955455415,1.48665480595329e-12,-0.575007688458072,2.85302991733875e-12,-0.148384169849155,-3.25501730267442e-12,1.10696456401581e-13,-0.00269311533898298,-1.41687453641489e-13,-4.3754463331498e-11,-1.20790894459678e-14,-0.0124348976992382
9000000000,2,0.011,0.004,1.2826291290477,9.88829957151725e-13,-0.46216943885908,-7.37274758019095e-13,-0.277788227811424,-5.52854219725103e-12,-4.17315674604608e-14,-0.00216462421575581,-2.56364576413742e-14,2.07750651824791e-11,-3.42111140051495e-14,-0.00999470032407743
9000000000,2,0.011,0.005,1.23581217790337,-6.76432382688e-13,-1.00124608466053,-4.52539283439719e-12,-0.267648746140797,-4.78393622595072e-12,-1.40807559749809e-14,-0.00191406214560366,1.23535787572976e-14,1.33887471457995e-11,-3.54252435332719e-14,-0.00883778223212157
9000000000,2,0.011,0.007,0.594838299472916,-2.27097917336092e-12,-0.898065597528606,-7.7535603666802e-12,-0.128828421702755,-3.3252517385537e-12,1.45339037544225e-14,-0.00171681410451189,-6.07173539505948e-14,2.00999095760894e-11,-1.37872410331673e-14,-0.00792703030423633
9000000000,2,0.016,0.002,-0.222613194070414,1.76261567145567e-12,-1.76969170142524,9.7913791684709e-12,-0.456679518175559,-5.84574307895619e-12,3.17810575294919e-15,-0.00828855617859076,2.87016051064291e-14,-1.25378287594579e-11,3.22965948270696e-15,0.00404034278967844
9000000000,2,0.016,0.004,-0.416751467283385,8.45892823391402e-13,-1.42241128445306,6.23552187399251e-12,-0.854944255833338,-8.52675947970319e-12,1.47624954778318e-14,-0.00666202834816379,7.97769206546806e-15,-2.08574723857228e-11,-2.15232622031371e-14,0.00324747496203567
9000000000,2,0.016,0.005,-0.401539737796349,2.27632818448973e-12,-3.081518576826,9.80748841418088e-12,-0.82373813976475,-8.68640206235338e-12,2.41449310180485e-15,-0.00589087755077172,2.47505109688187e-14,1.32546132588235e-12,-2.34602916965476e-14,0.00287156953251209
9000000000,2,0.016,0.007,-0.193274619710427,1.03528092189365e-11,-2.76396171685724,-2.52476862879613e-12,-0.396493113819203,-7.47006848543612e-12,-5.35738976537581e-14,-0.00528381045273232,1.93158789316056e-14,-4.0440167771633e-11,-7.73813309022306e-15,0.00257564833626035
9000000000,3,0.009,0.003,1,-5.1245108289815e-28,3.0642021103935e-10,-4.89846788421569e-12,-1.5471190227445e-11,8.86091604245987e-12,-4.3525966045518e-14,2.22908424180858e-12,6.18193523904764e-14,-0.00342138480890273,-4.43885993918792e-14,-0.00242549734258071
9000000000,3,0.004,0.002,0.759559403542863,5.11751173505399e-12,1.0926301713297e-08,-1.10914790125233e-11,-1.01214496255871e-11,2.38329679760131e-12,-5.91506911107015e-15,1.2797643158267e-12,3.98848489883344e-14,-0.00259874502750164,6.13007792260354e-14,-0.00425895460856514
9000000000,3,0.004,0.004,1.09593363073233,8.0339582243345e-12,-5.80811468561696e-10,-6.08755748418174e-12,-1.60460774345672e-11,3.47612425869121e-12,1.38269583613181e-13,-8.04393958398471e-12,1.04639900693527e-14,-0.00374961065842572,1.87524155318008e-14,-0.000241538780052936
9000000000,3,0.004,0.005,1.0403885148287,6.79347194915553e-12,9.77526736012272e-11,-1.10285290611278e-11,-1.57682663544756e-11,2.38206122281476e-12,8.73534688859608e-14,2.03611783751604e-12,2.24327765353058e-14,-0.00355956943474213,-2.99565160063135e-16,0.00159326928179549
9000000000,3,0.004,0.007,0.637086177298425,5.13981498411169e-12,-2.54799443468245e-09,-5.81322486101539e-12,-7.41417669361717e-12,1.56660827900699e-12,7.23258471770444e-14,-3.69232054646281e-13,3.16989465661272e-15,-0.00217971696160159,-2.84398518670229e-14,0.0039018791389194
9000000000,3,0.011,0.002,0.759559398972437,1.00418869552223e-12,-1.81258392092186e-10,-1.43185895753102e-12,-7.80132749838054e-12,9.5584561559413e-12,-1.74184308694354e-14,-8.52651946311679e-13,2.47872653612362e-14,-0.00259874493728948,-3.72118634366799e-14,-0.00425895450993984
9000000000,3,0.011,0.004,1.09593362570388,8.70960297404295e-13,-4.79025877935418e-12,2.60805434045295e-12,-1.11548369130271e-11,1.47072474895976e-11,-2.04620888695117e-14,-2.21047474504455e-13,1.03175133539698e-14,-0.00374961070477658,-4.40652477219259e-14,-0.000241538788630016
9000000000,3,0.011,0.005,1.04038851373656,1.75052880554859e-12,1.60178520285435e-11,9.9881043014757e-12,-1.09334403123503e-11,1.31931520829656e-11,-5.37500751288418e-14,2.46327207686552e-13,8.88463741531415e-16,-0.00355956942603356,-5.24526117831258e-14,0.00159326927854014
9000000000,3,0.011,0.007,0.637086176619554,2.22038652815606e-12,7.78368608499317e-10,1.45701187787614e-11,-7.30520275481936e-12,8.05676676915784e-12,-8.76705820710552e-15,1.6511283125144e-12,3.81968376824486e-15,-0.00217971696191701,-6.73566937751885e-14,0.00390187914219436
9000000000,3,0.016,0.002,0.759559402564626,8.08888986131076e-12,-5.76750740416825e-09,2.00154509292365e-12,-7.78244684162804e-13,8.77682522383075e-12,-9.38020703468008e-14,-1.36866622048822e-11,-1.22746967834727e-14,-0.00259874495967121,5.93971175571419e-14,-0.00425895454832323
9000000000,3,0.016,0.004,1.09593363385064,1.21486499905903e-11,5.9594833767226e-10,4.32257989859728e-12,-1.2154533152919e-12,1.52911888375134e-11,-6.0502668727309e-14,-1.28013796156622e-11,2.70078656171544e-14,-0.00374961073835956,2.40071643021208e-14,-0.000241538796294809
9000000000,3,0.016,0.005,1.04038851488482,1.13820046265289e-11,-2.16567801022124e-10,1.4672769317276e-11,-1.28099736728387e-12,1.43315913501378e-11,-2.68347880701646e-14,-1.87178538093289e-12,-3.45448382589559e-15,-0.00355956943515543,9.39439134940836e-15,0.00159326928083437
9000000000,3,0.016,0.007,0.637086177277808,5.65361815460504e-12,2.4133621740396e-09,2.27559325580931e-11,-1.51124597797801e-13,9.17400024134974e-12,-4.17314468960057e-14,3.65180122644166e-13,3.48395263485324e-14,-0.00217971696089408,-7.79617306868421e-15,0.00390187913831154
9000000000,4,0.009,0.003,-0.0889081288419245,2.85280069972589e-12,-0.243640765114345,-6.52599880226677e-14,1,-0,-4.70628364397575e-14,0.00155945704228425,4.59924935801093e-14,-3.92783228763448e-12,-8.18469595510747e-15,0.000138648402255254
9000000000,4,0.004,0.002,-0.347422466343277,1.17721816286473e-12,-0.246302057800372,1.76118939439948e-12,0.449665943219118,-1.06712423420101e-12,8.40180311641533e-14,0.00157649094441858,8.74639365646529e-14,4.42818712200271e-13,2.37907946705272e-14,0.00121803385032674
9000000000,4,0.004,0.004,-0.508189173854312,3.09976245928736e-12,-0.0235083980623839,6.20666979872454e-14,0.657744918054163,-5.33810804896571e-12,4.48087130968666e-14,0.00015046881102852,8.85596969542795e-14,8.8837720444557e-12,1.7755100686965e-14,0.000116255754512428
9000000000,4,0.004,0.005,-0.482907639537889,2.12202715189427e-12,0.158365967626277,-3.11854540054296e-13,0.625023247007455,-4.62254437580261e-12,6.95262168511479e-14,-0.000413732113277196,5.26616378144678e-14,1.24007998916833e-12,8.65249467968418e-15,-0.000319659149997813
9000000000,4,0.004,0.007,-0.292025639962641,9.93556075393138e-13,0.356518806822128,-3.53699049706186e-12,0.377966302718455,-5.61682143458357e-12,2.57091084237549e-15,-0.000931407678604369,-9.85605168716104e-15,-6.9431555029987e-13,-5.62969212639074e-15,-0.000719627435042462
9000000000,4,0.011,0.002,0.0671788669490885,2.27285281955804e-12,-0.413875038445537,1.32933169013491e-12,0.755598759284787,-1.26735542820262e-12,1.3420576742686e-13,0.00264906544272572,-2.21983046423626e-13,-8.23700808635799e-12,5.83377080644738e-15,-0.000235523448265902
9000000000,4,0.011,0.004,0.0982653026380203,2.7525747035207e-12,-0.0395024754925673,1.67324200255375e-12,1.10524546847286,-2.10409859984807e-12,-1.32091368689495e-13,0.000252841162116283,-1.79060647281848e-14,-2.99804846191805e-12,-1.36302778227851e-14,-2.24796334864108e-05
9000000000,4,0.011,0.005,0.0933767756285618,1.37119418106319e-12,0.266111167074678,2.87702828282211e-12,1.0502614198643,-8.57525985518386e-13,-4.20676874927335e-14,-0.000695217144310369,3.83726420293288e-14,1.14804795158126e-13,-2.08318475086487e-14,6.18104498238114e-05
9000000000,4,0.011,0.007,0.0564671394969739,7.27835807889714e-13,0.599078419732213,1.7286557183432e-12,0.635117856961066,-3.19073097154675e-13,-4.71844735955069e-15,-0.00156509624996427,-8.91822814918612e-14,9.67510648448412e-13,-2.03392932894853e-14,0.000139149773839797
9000000000,4,0.016,0.002,0.347422462774164,-9.02591769139967e-13,-0.246302033036632,-1.14541121547315e-12,0.449665940583345,-2.27241777674103e-13,1.11904950349213e-15,0.00157649085663348,-9.46306439536912e-15,5.74867958960666e-12,5.05207530567571e-15,-0.00121803378060651
9000000000,4,0.016,0.004,0.508189173555903,4.35967146506643e-13,-0.023508405162272,-1.2926522618186e-12,0.657744918230331,9.94181421518759e-13,1.07511992159177e-14,0.000150468856387215,-5.41027223533749e-14,1.05498129253113e-11,1.18122063964615e-14,-0.000116255742028968
9000000000,4,0.016,0.005,0.482907639614015,2.61921510888053e-12,0.158365967531312,2.2545157599185e-12,0.625023247002729,1.73112514700162e-12,7.16102909009786e-14,-0.000413732113372578,-1.3341933201574e-14,-5.55984470682711e-13,1.67536484527353e-14,0.000319659147079645
9000000000,4,0.016,0.007,0.292025639780521,2.09847092683149e-12,0.356518806205586,-9.63033131471477e-13,0.377966302710195,-2.96683907173878e-13,-5.32889809105925e-14,-0.000931407677284982,2.20816527805772e-14,3.88413110052087e-13,1.85932579815278e-14,0.000719627434742269
9000000000,5,0.009,0.003,-0.291860833817436,1.45837610680784e-11,6.97513142265801e-09,-5.85329550921861e-12,1,-0,-2.43742028762493e-14,0.00242549732288905,9.70667924779271e-14,0.000838742632042806,3.2839688071269e-14,0.000707907637326519
9000000000,5,0.004,0.002,-1.14647015651178,2.62729850002002e-11,-3.27616504789424e-08,-3.92995095806539e-12,0.452022970540709,-9.42484918130084e-13,1.19659095838509e-13,0.002534555505934,1.98514154250839e-13,0.0032946985483323,1.75240448366044e-13,0.00642841671827365
9000000000,5,0.004,0.004,-1.65418952987514,3.82208026941259e-11,3.6979677928844e-09,-1.28677552446332e-12,0.652203331295597,-5.62301566789763e-12,4.99307920773843e-14,0.000143742619529999,2.43009829306226e-13,0.004753770172466,2.27011721485481e-14,0.000364575881873547
9000000000,5,0.004,0.005,-1.57035037269569,3.4068408002231e-11,-5.87926441937046e-10,4.97844475026842e-13,0.61914776323869,-4.61179038892704e-12,5.77270849891836e-14,-0.000948173775430891,1.93982032357025e-13,0.00451283518296461,-5.5924618024485e-14,-0.00240486221800666
9000000000,5,0.004,0.007,-0.96161049020032,2.04245367656941e-11,9.35126870897207e-09,2.55295696392953e-12,0.379137674748399,-5.55413911853063e-12,-1.51478213089461e-14,-0.0023220554341781,7.2759017974424e-14,0.00276345317232991,-1.65185604966488e-13,-0.0058894511737209
9000000000,5,0.011,0.002,0.221685632334423,2.65157898479406e-12,-1.00821236255709e-08,-1.06495345157225e-11,0.759559403451943,-2.05749954801245e-12,2.20154237368489e-13,0.00425895445519316,-2.63173359617197e-13,-0.000637074856033112,2.29186440742386e-14,-0.00124302199898342
9000000000,5,0.011,0.004,0.319860093439171,4.29465173726968e-12,2.33111348392119e-09,-2.49418880910847e-13,1.09593363119827,-3.2328882944447e-12,-1.44203569239488e-13,0.000241538798152649,-3.07575996392328e-14,-0.000919206268176959,3.31778935129839e-15,-7.04957075299031e-05
9000000000,5,0.011,0.005,0.303648653348941,2.71905099474952e-12,-5.46175511724884e-11,8.51482461612719e-12,1.04038851680656,-1.67071741901352e-12,-6.59716814846493e-14,-0.00159326927813398,4.50154282450325e-14,-0.000872618206173357,-3.84837726110602e-15,0.000465012859316412
9000000000,5,0.011,0.007,0.185940500926007,2.11261186613604e-12,-3.94484915767815e-10,1.73213679398199e-11,0.63708617860235,-1.39809866780571e-12,-7.30668614452005e-14,-0.0039018791727795,-9.78986258033988e-14,-0.000534351345876598,-3.09283888241053e-15,0.00113880566235316
9000000000,5,0.016,0.002,1.1464701547563,-2.20029950001538e-11,-2.89633966547623e-09,-1.1252891889559e-11,0.452022967613508,-1.9809355356284e-12,4.97849547206403e-14,0.00253455530105065,-8.16411476126363e-14,-0.00329469834327682,-1.40136246406344e-13,-0.00642841631985995
9000000000,5,0.016,0.004,1.65418952415907,-2.94870453307299e-11,-1.11817958747362e-08,-4.20499561729792e-12,0.652203331468114,-1.43001109832128e-12,2.32440318555888e-14,0.000143742685775963,-1.71525841390499e-13,-0.0047537702188334,2.18003786464375e-16,-0.00036457580788952
9000000000,5,0.016,0.005,1.57035037279295,-2.4901843349847e-11,-7.19862893238143e-10,3.65470510305732e-12,0.619147763230763,-6.3383396745535e-13,6.85885318978964e-14,-0.00094817377489368,-1.23731167935376e-13,-0.00451283518214422,6.81327060144624e-14,0.0024048622024481
9000000000,5,0.016,0.007,0.961610489964109,-1.33894663095055e-11,8.52268172351788e-09,5.8558919082802e-12,0.379137674738012,-2.22544166026822e-12,-1.03136484631539e-13,-0.00232205542974288,-3.47620406739903e-14,-0.00276345316870002,1.49564807690292e-13,0.00588945117213145
10000000000,1,0.009,0.003,-0.0471147025574454,-9.52844145203817e-16,1,0,8.99138859727042e-15,0.399312998433902,-0.00415706032028049,2.82248006442696e-17,5.51147608787724e-13,1.29798356904408e-17,2.32217574928783e-17,0.000490489074696786
10000000000,1,0.004,0.002,-0.167824767624501,7.75746631931098e-16,0.661114059417759,-1.84205296078238e-15,-3.92087588692562e-15,0.163676601700038,-0.00274829102071728,1.84768974706935e-17,1.25632820390466e-12,8.02537149636474e-17,-2.96008962775645e-19,0.00281794281116045
10000000000,1,0.004,0.004,-0.310145680181066,-1.65499476632171e-14,0.50628178497357,-4.24043477476672e-14,3.30287830875149e-15,0.302479732604963,-0.00210464392018963,1.54834182544264e-16,-1.19675429669881e-12,3.58364846455201e-17,-6.08984791657282e-16,0.0021579833306396
10000000000,1,0.004,0.005,-0.296216165415958,9.57496398476838e-14,1.06237319930178,3.01348207548571e-14,1.68012714914794e-14,0.288894516536028,-0.00180259162241607,5.3986073527957e-17,-4.89553837394556e-14,-3.15140445008907e-16,-1.80925135597593e-15,0.00184827591658167
10000000000,1,0.004,0.007,-0.140942066639268,-1.56534458682781e-15,0.923745679149953,-4.50221772481615e-15,3.63707289196634e-15,0.137458366516357,-0.0015673740865873,1.04898089342087e-17,4.58991784902451e-13,-4.69452746961974e-18,3.73393492515869e-17,0.00160709710330833
10000000000,1,0.011,0.002,0.0324512067617998,5.58216133152824e-15,1.11090682232675,-2.61999777667873e-14,6.89254105963546e-15,0.275034922065939,-0.00461810667330512,1.61260685317182e-16,1.38141087781318e-12,-1.04631785414416e-16,-5.12342114695843e-19,-0.000544887659168188
10000000000,1,0.011,0.004,0.0599708955008557,3.3803773485043e-15,0.850733518283286,-2.0000234705447e-14,1.2333539997456e-14,0.508273564182456,-0.00353655055225832,1.95697339131584e-17,1.23501119355828e-13,1.00027657861968e-17,-3.20111315987834e-18,-0.000417275495874498
10000000000,1,0.011,0.005,0.0572774338396992,3.13909362622859e-15,1.78516493572721,6.1894649230857e-14,1.0731024506884e-14,0.485445567977767,-0.00302899523288517,-1.4185598389375e-17,7.35009549660391e-13,1.7833245559379e-17,-1.31048793160345e-16,-0.000357389345473761
