#frequency,mode,x,y,Ex_re,Ex_im,Ey_re,Ey_im,Ez_re,Ez_im,Hx_re,Hx_im,Hy_re,Hy_im,Hz_re,Hz_im
9e+09,1,0.009,0.003,-0.0488178003181637,-5.28099506495703e-13,1,0,-1.62496241415152e-12,0.340836052651861,-0.00388503047397294,-4.7128710037458e-14,-2.42954459034775e-13,2.95664753049888e-14,-1.05964169582918e-14,0.000556451233782932
9000000000,1,0.004,0.002,-0.172972982345217,-5.79803269781616e-14,0.649220298289961,6.07154162714452e-13,-5.3815645335955e-14,0.138969389556975,-0.0025222406395117,1.00577063796859e-13,8.58818692223909e-13,2.59085002425988e-14,1.09647572647324e-15,0.00313939269749382
9000000000,1,0.004,0.004,-0.323820649708214,-7.16375797869324e-13,0.521818730212422,2.99142123153363e-13,-1.44696411170048e-12,0.260162930113429,-0.00202728166889737,4.54466956724199e-14,-6.97635326513937e-13,5.78707236896409e-14,-5.71469381246322e-15,0.00252332516103045
9000000000,1,0.004,0.005,-0.312000950295935,-1.00503608837183e-12,1.1304705868662,-9.14771863482304e-13,-8.60667948180555e-13,0.250666785420046,-0.00179261742062967,-8.93565601278935e-15,-3.31972228203656e-13,9.47159921720894e-14,-6.40611123795742e-15,0.00223124231294153
9000000000,1,0.004,0.007,-0.150176642215567,-1.02768580215098e-12,1.01397325792815,-1.463459538022e-12,-1.40962638212309e-12,0.120654428015945,-0.00160788449291955,1.36678804788243e-14,4.92193410454641e-13,7.51793553676489e-15,-1.64181332848726e-16,0.00200130818332215
9000000000,1,0.011,0.002,0.0334466840564281,-1.50098450231203e-13,1.09092107329815,4.63412405280186e-13,-7.33574997586489e-13,0.233518015583643,-0.00423826161270682,4.77212172139219e-14,-6.65796011483675e-13,-4.60085608128023e-14,-1.31813393833908e-14,-0.000607044375427321
9000000000,1,0.011,0.004,0.0626151372747971,-1.72472842177414e-12,0.876841114175158,6.00680617354564e-13,-2.93348359084965e-13,0.437166280920989,-0.00340655444990953,1.09230085143161e-14,-9.33467639733097e-14,-4.06447005072644e-14,-1.39541634702246e-14,-0.000487919320066546
9000000000,1,0.011,0.005,0.0603296371786195,-2.39958755935564e-12,1.89959277404733,1.5770096015296e-12,-6.19126545292924e-13,0.421209379399676,-0.00301223502566727,4.53911906953643e-14,2.49612308361802e-13,-3.86064835074434e-15,-1.20003858428358e-14,-0.000431441119158545
9000000000,1,0.011,0.007,0.02903870214622,-1.98499793897982e-12,1.70383581373034,5.03187527910494e-13,3.92634170841314e-13,0.202742364363034,-0.00270181798130612,-4.04359047614219e-14,2.74681373440758e-13,1.81561374566483e-14,4.2107742130442e-15,-0.000386980220887456
9000000000,1,0.016,0.002,0.17297298234671,1.9255465878517e-12,0.649220298293407,-3.56247075644428e-14,-1.59783271333393e-12,0.138969389557256,-0.00252224063949061,-4.27567851882696e-14,-7.35403754181402e-13,-7.4407784466666e-15,1.72390101915181e-15,-0.00313939269746027
9000000000,1,0.016,0.004,0.323820649710464,-1.75074630262919e-13,0.521818730216746,-3.89447131020203e-13,-2.39451527031963e-12,0.260162930111295,-0.00202728166893178,-3.96091015608252e-14,8.96503778192165e-13,5.92721306885951e-14,-1.52904541196091e-14,-0.00252332516109409
9000000000,1,0.016,0.005,0.31200095030244,-1.42476450620194e-12,1.13047058686321,4.42190362707544e-12,-8.08333904484942e-13,0.250666785418,-0.00179261742001248,4.32101958415684e-14,-5.72078341534487e-13,-2.67740598329141e-14,-8.13575310714361e-15,-0.00223124231287359
9000000000,1,0.016,0.007,0.150176642216604,-1.60543261735506e-12,1.0139732579271,2.54834054321149e-12,-6.68897238792581e-13,0.12065442801522,-0.00160788449299954,-6.33376520271502e-14,-2.64545346537271e-13,-1.31040251308774e-14,5.08861635479221e-15,-0.00200130818347483
9000000000,2,0.009,0.003,1,-0,0.527084627865743,7.99418076514074e-12,0.216577200934211,-4.1668107539442e-12,-4.3742467139803e-14,0.00246866205108532,-1.73840388459994e-13,-4.4485179176275e-12,1.83992195628221e-13,-0.0113985314795362
9000000000,2,0.004,0.002,-0.222613148303449,-1.97606617506647e-11,1.76969183307318,3.49990375114936e-11,0.456679550709404,6.21603698269697e-12,-1.84256526514171e-13,0.00828855690307295,-6.96755201829825e-14,-5.03582451446091e-12,-1.61145099073615e-13,0.00404034338662314
9000000000,2,0.004,0.004,-0.416751498411463,-3.07343411106098e-11,1.42241137904682,2.7249285497056e-11,0.854944314093504,1.40831456210356e-11,-1.36701596247131e-13,0.00666202883968425,-8.76838903874094e-14,2.82983004205279e-11,-5.40418446455774e-14,0.00324747525996827
9000000000,2,0.004,0.005,-0.401539765959447,-2.97129320593054e-11,3.08151878913694,5.87456815104325e-11,0.823738196421034,1.49499013612846e-11,-8.30897270586082e-14,0.00589087795437334,-1.37276235733611e-13,2.81782345702751e-12,5.10256862160607e-16,0.00287156972082102
9000000000,2,0.004,0.007,-0.19327463240488,-1.75880226768606e-11,2.76396190664548,5.08344284691938e-11,0.396493141122663,5.97195344759055e-12,-1.15244826066088e-13,0.00528381081513645,-5.30168123009447e-14,-4.16429150270307e-11,7.59819459474774e-14,0.00257564851199278
9000000000,2,0.011,0.002,0.685132962156892,-2.35165988598312e-12,-0.575007721831222,-1.10944397846967e-11,-0.148384180131044,-9.73868965923655e-12,7.6515354908252e-14,-0.00269311543916912,-2.50216779793529e-14,1.95469841726003e-11,1.40066260326901e-13,-0.0124348980932112
9000000000,2,0.011,0.004,1.28262921803709,2.15581694869209e-12,-0.462169472283588,-1.37349112471662e-11,-0.277788246455591,-1.66366501675884e-11,1.39001609808178e-13,-0.00216462441068102,-7.73599682134396e-14,5.94572065727506e-12,1.78275371347635e-13,-0.00999470104411859
9000000000,2,0.011,0.005,1.23581226272245,2.63667104901334e-12,-1.00124615407736,-3.55031029666393e-11,-0.267648764607427,-1.58695474131755e-11,4.25916811414671e-15,-0.00191406228138009,-6.80162736708856e-14,1.18573362989834e-11,1.80522631641062e-13,-0.00883778283252756
9000000000,2,0.011,0.007,0.594838340386742,-9.1759190734631e-13,-0.898065659331127,-3.71776816819622e-11,-0.128828430575364,-7.6006543170892e-12,4.32223115292266e-14,-0.00171681422250847,-3.28354081772103e-14,2.02294368053421e-11,1.95198362796125e-13,-0.00792703084976584
9000000000,2,0.016,0.002,-0.222613148301419,-1.83274172408823e-11,-1.76969183306704,-3.05492597792088e-11,-0.456679550715114,-9.79519745044271e-12,1.93615514265363e-13,-0.00828855690294776,1.32853176697232e-14,-4.92068899274393e-12,-1.56148246588006e-13,0.00404034338658681
9000000000,2,0.016,0.004,-0.416751498407828,-2.9007917865692e-11,-1.42241137904667,-2.73832382966274e-11,-0.8549443140976,-1.92385020268472e-11,1.50488778093556e-13,-0.00666202883965539,-7.78014581750591e-14,2.84769905305868e-11,-9.53594070356015e-14,0.00324747526028566
9000000000,2,0.016,0.005,-0.401539765486837,-2.8373004011358e-11,-3.08151878884132,-5.66423062860214e-11,-0.823738196432136,-1.77946132449056e-11,9.69475844869962e-14,-0.00589087795361973,-2.9782125319818e-14,-1.71580295001247e-13,-5.9040845083355e-14,0.00287156972061347
9000000000,2,0.016,0.007,-0.193274633006028,-1.65518969389817e-11,-2.76396190698079,-5.12211328308868e-11,-0.396493141096362,-1.00761228022008e-11,1.11442182168555e-13,-0.00528381081591946,2.69591963803737e-15,-4.00233095932063e-11,-1.90496652723323e-14,0.00257564851338766
9000000000,3,0.009,0.003,1,0,-3.43071832946953e-09,-1.9155615621614e-12,-1.14906132449889e-11,4.03182525767389e-12,6.63168753889795e-15,-6.64798270855846e-12,6.24893136019582e-14,-0.003421384766745,-5.68310399552409e-15,-0.00242549729817393
9000000000,3,0.004,0.002,0.759559405463335,1.76366917787935e-13,1.04272963248114e-08,-2.34590837690551e-12,-4.35834912720625e-12,1.44479269051733e-12,3.61832846271996e-14,1.36742479124029e-12,2.64327252915475e-14,-0.00259874503122141,2.1487816951811e-15,-0.00425895461779847
9000000000,3,0.004,0.004,1.09593363373869,3.83356493007706e-13,-6.58489770589465e-10,-2.14809739078897e-12,-7.35050929908389e-12,5.39313348172322e-13,4.16165427111027e-14,-8.36394547939804e-12,1.74131081636459e-14,-0.00374961066954898,-2.86793226161224e-15,-0.000241538781111204
9000000000,3,0.004,0.005,1.04038851760623,-2.48854802436022e-13,1.21631118192301e-10,-6.14229408358581e-12,-7.05522886393994e-12,-3.22516629068594e-13,2.90589775242561e-14,1.94851596759923e-12,6.84368091085957e-14,-0.00355956944395971,-2.27816739486806e-15,0.00159326928614223
9000000000,3,0.004,0.007,0.637086178997372,-1.69713355624031e-13,-2.52512708645796e-09,-6.84741321387561e-12,-3.6897945321514e-12,1.34961925944073e-12,2.30059110089885e-14,-2.6160442293897e-13,2.61294130767602e-15,-0.00217971696752374,1.33555943764465e-16,0.00390187914930935
9000000000,3,0.011,0.002,0.759559403077895,1.32906158770287e-13,-7.58250653024485e-09,-1.23491023538861e-12,-8.01663119387699e-12,3.7780783199322e-12,3.07781969126969e-14,-1.03021991969413e-11,-1.61029904212138e-14,-0.00259874498980239,-6.07759642632788e-15,-0.00425895457524238
9000000000,3,0.011,0.004,1.09593363068245,7.91153083882372e-13,1.04862447521564e-09,7.68200194488751e-13,-1.20345613092054e-11,6.21643690793124e-12,9.74286958360573e-15,3.57999706916653e-12,-1.20445897403663e-14,-0.00374961063441075,-1.3794178577496e-14,-0.000241538775279148
9000000000,3,0.011,0.005,1.04038851658118,9.36073340078975e-13,-4.71284473600863e-12,3.64719727857729e-12,-1.07021736704706e-11,5.31162053997804e-12,2.15001373074806e-14,-1.352756124843e-14,2.55966317420176e-14,-0.00355956943497524,-1.84223156292773e-14,0.00159326928409625
9000000000,3,0.011,0.007,0.63708617832313,1.36569257827534e-12,7.7828941540934e-10,5.23592287347984e-12,-6.33705760583593e-12,2.6192462475448e-12,-2.77231877206076e-14,1.70050762372176e-12,3.72123629207595e-14,-0.00217971696751322,-3.38762051133417e-14,0.00390187915257368
9000000000,3,0.016,0.002,0.759559405463094,4.07677471366212e-12,-1.04144963652247e-08,4.02058581600171e-12,-5.40177982897363e-12,-5.98037499472236e-14,-7.33489815633324e-14,-1.42554304908053e-12,-1.0539093739461e-13,-0.00259874503130027,1.27242458826485e-14,-0.00425895461776424
9000000000,3,0.016,0.004,1.09593363373623,5.95857825776377e-12,6.62604873517554e-10,3.53403113345403e-12,-7.55175300942679e-12,5.39580814483524e-12,-5.41502478148542e-14,8.44489880898726e-12,2.09825994784092e-14,-0.00374961066958056,-3.63559890366442e-15,-0.000241538781105688
9000000000,3,0.016,0.005,1.04038851762217,5.16611835646156e-12,-1.53205347960696e-10,9.22411754600221e-12,-7.48177147202709e-12,4.87231794292736e-12,-1.74110831284668e-15,-2.25780318078907e-12,5.91469873534221e-15,-0.0035595694442919,-8.38921102097634e-15,0.00159326928663564
9000000000,3,0.016,0.007,0.637086178976834,2.88872140654574e-12,2.39427311117876e-09,9.86755655611327e-12,-3.69117493154623e-12,3.86167963064576e-12,-4.68440826270073e-14,3.45759451928772e-13,-1.69367258398499e-14,-0.00217971696674137,-1.08727287360626e-14,0.00390187914880351
9000000000,4,0.009,0.003,-0.0889081259930836,9.23292224456815e-12,-0.243640765105455,2.34766470731682e-13,1,-0,4.19572875376938e-14,0.00155945703491257,3.65202086327346e-14,3.05669265453807e-12,3.12850039339855e-14,0.000138648410513399
9000000000,4,0.004,0.002,-0.347422465913389,8.24763634528408e-12,-0.246302056229027,-8.4231221850325e-13,0.4496659432029,-1.01957808441072e-12,-5.15447732733177e-14,0.00157649093856602,4.60888250846883e-14,1.75866333767523e-12,3.5577782683908e-14,0.00121803385037664
9000000000,4,0.004,0.004,-0.508189174008081,1.16450843738949e-11,-0.0235083979117989,-1.71229456351989e-14,0.657744918055947,4.70165110441622e-13,1.67742473880887e-14,0.000150468810971585,3.4267766669685e-14,8.22595763299822e-12,-1.13777731804157e-14,0.000116255755042199
9000000000,4,0.004,0.005,-0.482907639571266,1.03708257416176e-11,0.158365967637702,-2.47118388447303e-14,0.625023247016059,-6.78369101003232e-14,4.61912337927876e-14,-0.000413732113035746,1.09956273948855e-13,1.05070187686082e-12,-2.9970010909283e-14,-0.000319659149803018
9000000000,4,0.004,0.007,-0.292025639983031,6.09574539936593e-12,0.356518806828172,6.6337578152018e-13,0.377966302725564,-5.20355383898579e-13,-2.31873151108516e-14,-0.000931407678350976,3.59518632829657e-14,-6.67286989938605e-13,-4.75172430541073e-14,-0.000719627434932532
9000000000,4,0.011,0.002,0.0671788727115293,6.92097124168955e-12,-0.413875045701945,-2.82641731042111e-12,0.755598758812099,-4.15212944152517e-13,-4.40504094563949e-14,0.0026490654926463,1.86380379455979e-14,5.8067070616097e-12,5.17370427141123e-14,-0.000235523428103124
9000000000,4,0.011,0.004,0.0982653039017902,8.44138408677786e-12,-0.0395024736238252,-9.72246395931676e-13,1.10524546869226,-3.67490984310154e-13,1.83774633739039e-14,0.000252841147550361,6.64053646639569e-14,5.84184393623809e-13,6.95523617985205e-15,-2.24796399353497e-05
9000000000,4,0.011,0.005,0.0933767756674266,7.57511310331963e-12,0.266111167038343,-8.51580856711932e-13,1.05026141987691,-1.77431554309752e-12,-5.42569643291903e-14,-0.000695217145776578,6.99114814594658e-14,-4.4059077247706e-13,-1.16134928641175e-14,6.18104505548073e-05
9000000000,4,0.011,0.007,0.0564671394984212,4.3369779357119e-12,0.599078419741208,-1.15199628922435e-13,0.635117856971722,-3.93173177570289e-13,-3.20265499639973e-14,-0.0015650962500644,8.97281837411857e-15,8.58896321087162e-13,-3.02168385006744e-14,0.000139149773942407
9000000000,4,0.016,0.002,0.34742246590024,3.53262327977189e-12,-0.246302056217973,-4.6679104578698e-12,0.449665943192551,4.19081195386298e-13,1.57862089551959e-14,0.00157649093867578,6.84562286232461e-14,-1.55496146237753e-12,1.20833013180845e-15,-0.00121803385047386
9000000000,4,0.016,0.004,0.508189173988414,3.38439589165629e-12,-0.0235083979042676,-3.01215323474252e-12,0.657744918052002,1.37883928855268e-12,7.82399146961293e-14,0.0001504688110095,-5.67213405547194e-14,-8.16618003245756e-12,-2.07932569096111e-14,-0.000116255755048248
9000000000,4,0.016,0.005,0.482907639577097,2.42380416947323e-12,0.158365967595003,1.98731980388309e-12,0.625023247012366,1.30312134815072e-12,-7.51188945544983e-14,-0.000413732113113962,2.99857699000751e-14,-1.05825073805281e-12,-2.1619995712619e-14,0.000319659150134629
9000000000,4,0.016,0.007,0.29202563979799,7.66895751219514e-13,0.35651880620035,4.36290404659778e-12,0.37796630271203,-5.51158015564569e-13,1.50654672228277e-14,-0.000931407677410389,7.39817403551228e-15,4.29153400499307e-13,-1.31257151619397e-14,0.00071962743487758
9000000000,5,0.009,0.003,-0.29186082743529,1.49865257708471e-11,-1.46450786251637e-09,-8.340895304799e-12,1,0,1.91294406538671e-14,0.00242549728632728,2.04826714374313e-16,0.000838742605135948,3.42906165585297e-14,0.000707907686438773
9000000000,5,0.004,0.002,-1.1464701556783,2.94403002193332e-11,-3.04721516115827e-08,-3.29051631247667e-12,0.452022970522352,-2.821120317935e-12,-2.22005827358321e-14,0.00253455549320198,1.21235277126743e-13,0.00329469853677221,2.035998158078e-13,0.00642841671730176
9000000000,5,0.004,0.004,-1.65418952985618,4.27384708225134e-11,3.93838354800411e-09,2.530515844465e-12,0.652203331296472,5.13918261326736e-13,8.37841941635263e-16,0.000143742619484049,1.9767252457406e-13,0.00475377017237625,1.75493067810365e-14,0.000364575884389538
9000000000,5,0.004,0.005,-1.57035037255664,4.04321646547678e-11,-5.54977331208215e-10,1.10840550342801e-11,0.619147763246727,6.92582293278713e-13,-2.17897955505988e-14,-0.000948173775112525,2.17591622147655e-13,0.00451283518170429,-6.99811698944698e-14,-0.002404862218051
9000000000,5,0.004,0.007,-0.961610490113204,2.52261210790904e-11,9.4075109018146e-09,1.50855914037427e-11,0.379137674754044,-1.88224076709739e-12,-6.8429811003941e-14,-0.00232205543359473,1.14614845673966e-13,0.00276345317219783,-1.84805221709629e-13,-0.00588945117176168
9000000000,5,0.011,0.002,0.221685635058727,2.81807423620899e-12,-9.0259036392265e-09,-1.38112092532537e-11,0.759559402950659,-1.52866935046668e-12,-2.71135863005294e-14,0.00425895460334324,-3.29889159656986e-15,-0.00063707493017667,-1.31879694377992e-15,-0.00124302187983079
9000000000,5,0.011,0.004,0.319860095877281,1.93136726064007e-12,1.67411332651442e-09,-1.93954353181556e-12,1.09593363140468,-3.13743273940339e-12,2.91637928225126e-14,0.000241538766991354,4.75833507634248e-14,-0.000919206255473513,-4.8867420487535e-15,-7.04957472529905e-05
9000000000,5,0.011,0.005,0.303648653362787,1.15814588775439e-12,-8.2581984417868e-11,6.68837194866676e-12,1.04038851681959,-3.72091411179537e-12,-6.88144533056914e-14,-0.0015932692800092,3.23599567097766e-14,-0.000872618207042882,-2.5749448318173e-15,0.00046501286408163
9000000000,5,0.011,0.007,0.185940500903694,5.71544808464714e-13,-2.81682570595499e-10,1.41472885793326e-11,0.637086178612224,-1.95515628568722e-12,-9.28531165742686e-14,-0.00390187917238781,-2.76901050385649e-14,-0.000534351346344523,9.67680991980467e-15,0.00113880566323109
9000000000,5,0.016,0.002,1.14647015566568,-1.75508027873035e-11,-3.0461603722697e-08,-1.40021528383489e-11,0.452022970512186,3.35639287891154e-12,9.60031088627252e-14,0.00253455549317092,1.10787351220372e-13,-0.00329469853681768,-1.20594816248249e-13,-0.00642841671730589
9000000000,5,0.016,0.004,1.65418952983041,-2.71171809493593e-11,3.94763628462955e-09,-6.09346921254724e-12,0.652203331292714,-1.044386781276e-12,1.44388133085048e-13,0.000143742619540756,-1.6079427589049e-13,-0.00475377017211221,-1.20625653918288e-14,-0.000364575884466582
9000000000,5,0.016,0.005,1.57035037251937,-2.62881561800095e-11,-6.31035577676206e-10,4.62385113620595e-13,0.619147763243383,-1.68233441621766e-12,-8.46196960666635e-14,-0.000948173775002311,-9.38754284161324e-14,-0.00451283518227702,4.41831573275286e-14,0.00240486221933947
9000000000,5,0.016,0.007,0.96161048986201,-1.72188074288185e-11,8.57795063878789e-09,6.44234154365966e-12,0.379137674738791,-3.74292135372007e-12,-7.8319894914433e-15,-0.00232205542961324,-4.47267213883119e-14,-0.00276345316817626,1.28479901544815e-13,0.00588945117114942
10000000000,1,0.009,0.003,-0.0471147031199612,2.67188216881247e-14,1,0,3.73128574526275e-14,0.399312998360586,-0.00415706032258533,3.0637932983828e-16,-4.47684297430853e-13,7.84487756455127e-17,3.90916396462646e-17,0.000490489074731321
10000000000,1,0.004,0.002,-0.167824767618857,-4.13310748389801e-16,0.66111405922131,1.3094375422297e-14,1.09038036176325e-14,0.163676601667369,-0.00274829101982736,-2.53758233407672e-17,1.13033845805782e-12,-5.96559309924619e-17,7.59146618132714e-17,0.00281794281044261
10000000000,1,0.004,0.004,-0.310145680101641,-9.12963199253726e-15,0.506281784868139,1.29425509919552e-14,1.49818850882446e-14,0.302479732549418,-0.00210464391994478,-7.58523607255414e-17,-9.59647642096965e-13,-1.09866763738329e-16,-5.95546555680274e-17,0.00215798333017
10000000000,1,0.004,0.005,-0.296216165311707,-2.00942066576156e-14,1.06237319911679,3.37331009673105e-14,1.49606080043905e-14,0.288894516481599,-0.00180259162216957,-4.61261328213245e-17,-4.01626810925772e-13,-1.42290804156897e-16,-5.92417851354635e-17,0.00184827591624115
10000000000,1,0.004,0.007,-0.140942066612727,-1.16277594706223e-14,0.923745678977989,4.19007798497001e-14,1.08188253982229e-14,0.137458366490811,-0.00156737408621652,-1.94421315106935e-16,5.49552365404363e-13,-9.34856533707324e-17,-1.02917899522447e-16,0.00160709710283262
10000000000,1,0.011,0.002,0.0324512064664933,3.39905020811599e-14,1.11090682243072,3.79116498081737e-14,6.49824079488162e-15,0.275034921983057,-0.00461810667124705,-1.82152402776229e-16,-1.10186790103932e-12,2.63070310656095e-16,1.63402829521671e-16,-0.000544887657051031
10000000000,1,0.011,0.004,0.0599708955076915,8.10237394994545e-14,0.850733518268499,3.31880829076552e-14,-2.99766758028221e-15,0.508273564088559,-0.00353655055430832,-2.69352057934191e-16,-1.1793466283827e-13,5.56700311694252e-16,1.64645478600101e-16,-0.000417275496451759
10000000000,1,0.011,0.005,0.0572774338312404,9.61800686265402e-14,1.78516493540383,1.43801555549962e-13,-8.56991121608165e-15,0.485445567888064,-0.00302899523252966,-3.6992114680621e-16,3.65154763730322e-13,4.74943784886297e-16,-4.39858469013421e-19,-0.000357389345412691
