#frequency,mode,x,y,Ex_re,Ex_im,Ey_re,Ey_im,Ez_re,Ez_im,Hx_re,Hx_im,Hy_re,Hy_im,Hz_re,Hz_im
6e+09,1,0.009,0.003,-0.052203497108441,2.93108788630011e-13,1,0,0.079274148434011,1.03448992417249e-12,4.06250433180116e-14,0.00132912538581355,5.06787964692443e-14,9.50936530968227e-11,4.0384362181005e-15,0.000875222330122176
6000000000,1,0.004,0.002,-0.182331508667664,1.04780679833273e-13,0.619460159563925,6.36760475973316e-13,0.0318629080488051,9.45190444707187e-13,-1.05482684281039e-13,0.000823339713190715,-1.78979927766842e-13,9.89565193159803e-11,1.98960347047196e-14,0.00471149661668668
6000000000,1,0.004,0.004,-0.353422102847774,4.24567470120831e-13,0.561554276114638,3.96928456914325e-13,0.0617609983624771,-7.92844821636533e-14,-4.15726199385336e-14,0.000746379821411069,-6.94065716873065e-14,4.34061481810885e-11,4.81774025963932e-15,0.00427108627687815
6000000000,1,0.004,0.005,-0.347671681253343,7.09016689549262e-13,1.30671248846552,2.16072721405364e-13,0.0607560111535991,-6.07222256750523e-13,-8.22747679670357e-14,0.000708893358281529,3.83219912385327e-14,8.53499001822029e-11,3.41831102336409e-15,0.00405657882437409
6000000000,1,0.004,0.007,-0.171280205810423,1.83616345802575e-13,1.25105057488262,8.90353639060045e-13,0.0299319154883785,-1.35711956713021e-12,-4.26426960506976e-14,0.000678696791216195,-4.05839152905637e-14,-4.1898100485878e-10,-3.79333048163792e-15,0.00388378000791246
6000000000,1,0.011,0.002,0.0352578696990486,1.41581095318106e-13,1.04091249578795,-5.27581014733273e-14,0.0535410017159837,-2.18341143156103e-12,-5.16054011919949e-14,0.00138350352918298,-1.69599121897416e-13,3.15765474335402e-10,2.65365863656027e-14,-0.00091103035159938
6000000000,1,0.011,0.004,0.0683388831510354,2.87161070848931e-13,0.943611079078386,5.59480824104119e-14,0.103780462389119,2.82728532457577e-12,7.59832554724956e-15,0.00125417851664257,1.08807053651768e-13,4.02197161484521e-11,1.59974095423961e-16,-0.000825870878066055
6000000000,1,0.011,0.005,0.0672270236721645,4.83178628776607e-13,2.19574175314504,4.57999229355876e-13,0.102091723721084,9.50620038428057e-13,-8.3866202584607e-14,0.00119119244459659,-3.39424229673483e-14,-2.18900656424947e-10,6.05118799506875e-16,-0.000784394810157094
6000000000,1,0.011,0.007,0.0331208855739743,-8.47750928948955e-14,2.10221171569736,2.51299212964002e-13,0.050296282255915,2.19416706551826e-12,9.26584097616503e-14,0.00114045335036344,-7.55844984801407e-14,-2.03372867781235e-10,-1.57272821797037e-14,-0.000750982708327217
6000000000,1,0.016,0.002,0.182333047176937,2.23376937906539e-13,0.619459389676626,-7.51976682753436e-14,0.0318629035269337,-2.83066469831892e-12,1.83582480710484e-13,0.000823339475111643,1.0809037929862e-13,-8.26944865367428e-11,-1.20398623281711e-14,-0.00471148263029077
6000000000,1,0.016,0.004,0.353421087253797,4.35697754634891e-13,0.561554737326113,-2.74571243725848e-13,0.0617609979120635,3.8226434482791e-12,9.21290908932008e-14,0.000746380945861488,1.93217477649643e-15,1.0449902470795e-10,4.62190470499298e-16,-0.00427109319101492
6000000000,1,0.016,0.005,0.347671685018105,3.56071055408772e-13,1.30671245925348,-3.36040322119395e-13,0.0607560113042489,-3.71036614686932e-12,4.0586138093478e-14,0.000708893371657335,-4.2845014630821e-14,-8.36971113727201e-11,1.83558664452561e-15,-0.00405657942458217
6000000000,1,0.016,0.007,0.171280220097685,3.53495460309225e-13,1.25105059356073,-3.24331440878525e-13,0.0299319153469153,2.28477987379503e-12,-4.7578853180448e-14,0.000678696795920391,5.76095445846396e-15,4.09141203198426e-10,-4.06766618447488e-14,-0.00388378005959056
6000000000,2,0.009,0.003,1,-0,0.492956201813837,9.64045977559165e-13,0.28411122158581,-1.75817357697422e-12,3.46225467503463e-14,0.00476344444473567,-7.30829458182836e-15,1.02458646700716e-07,1.46962003780737e-14,-0.0167668777998902
6000000000,2,0.004,0.002,-0.219421565370247,-1.87460192025236e-12,1.579240884853,3.19729752792849e-12,0.590565282060531,-2.97529099323942e-13,-3.31820576412518e-15,0.0152599568680666,-1.36472976051894e-14,8.41054760660448e-08,-1.82509039298509e-14,0.00567102688827559
6000000000,2,0.004,0.004,-0.425413242105983,-3.0684025567023e-12,1.43159895478517,2.06629201428482e-12,1.14471174798113,-8.31176060254936e-13,-1.22829509604777e-14,0.0138340184011199,-2.2279236000851e-14,-2.64868217007845e-08,-2.64869068253565e-15,0.00514092466504238
6000000000,2,0.004,0.005,-0.418519037616867,-3.68814031921558e-12,3.33132912909965,2.87653189178615e-12,1.12608481179498,-6.20270033533637e-13,-3.51147173500322e-14,0.0131391317267255,-1.87817278740486e-14,3.11402798868603e-08,2.41680959179092e-15,0.00488274540677504
6000000000,2,0.004,0.007,-0.206052668458697,-1.72484208664317e-12,3.18938770342129,2.68500186269039e-12,0.55477479027486,-3.66051250062699e-13,-1.51633583019994e-14,0.0125791401013335,-2.16133657350046e-15,-8.45553481396556e-08,1.43242197959941e-14,0.00467467170208331
6000000000,2,0.011,0.002,0.675393423460336,-6.54162038436306e-13,-0.51312380998557,3.46668334330971e-13,-0.191886058527893,-2.25481263685908e-12,9.6628834226352e-15,-0.00495831276171693,-8.28534365747123e-15,6.52785989318301e-08,5.16730442147137e-15,-0.0174529761141455
6000000000,2,0.011,0.004,1.30922107369431,-3.06327469011396e-13,-0.465159872219466,-6.31901887149248e-13,-0.371939992971109,-2.58399119629592e-12,6.27419865953046e-15,-0.004494792992,-6.52086361647294e-15,2.64856803160751e-08,1.49110786304472e-14,-0.0158218412251693
6000000000,2,0.011,0.005,1.28791452645115,-2.91643152394896e-13,-1.08240799813112,-2.30815722634355e-12,-0.36588785970594,-2.2746807229565e-12,6.6131289366033e-15,-0.00426911876910361,-3.54890130271891e-14,3.45585503305874e-08,1.91580718118379e-14,-0.0150273243344348
6000000000,2,0.011,0.007,0.634511446917267,-7.55376321859438e-13,-1.03629694876186,-2.80992758184197e-12,-0.180258342771158,-1.15570882327198e-12,1.72802362288698e-14,-0.00408729070617012,1.01698083183505e-14,2.08912982624755e-08,2.68488846961546e-14,-0.0143875209176044
6000000000,2,0.016,0.002,-0.219493345281917,-2.17357833891984e-12,-1.57923500926016,-3.28464118416095e-13,-0.590565654311222,-2.54819067292821e-12,5.19442090102905e-14,-0.0152599207692141,1.29882548808731e-14,-8.07743140079513e-08,-2.51997849904659e-14,0.00567084440008207
6000000000,2,0.016,0.004,-0.425378805097009,-3.63336364089381e-12,-1.43160357738144,-1.61622901094744e-12,-1.14471240600514,-3.05148425051075e-12,8.26440861704782e-15,-0.0138341722522339,-1.27976270975624e-14,2.16750788026589e-08,-9.61527628259357e-15,0.00514097745368529
6000000000,2,0.016,0.005,-0.418518965136058,-3.99696264819804e-12,-3.33132832102076,-4.26471157136126e-12,-1.12608489091804,-3.84173015248205e-12,-1.33718511090087e-14,-0.0131391333408421,-1.99900712922119e-14,3.26712251017206e-08,-1.95667105578448e-15,0.00488275222885012
6000000000,2,0.016,0.007,-0.206053280728704,-2.69504797687937e-12,-3.18938807497962,-5.24866195976186e-12,-0.554774729301234,-1.86944095051789e-12,1.40870631906207e-14,-0.0125791424499205,-9.64027377946128e-15,-8.41228119214257e-08,8.64337636364833e-15,0.00467467161347262
6000000000,3,0.009,0.003,1,0,1.22423202158531e-07,2.37568451792255e-14,-9.31190451129154e-11,1.0991532322231e-12,1.9233731418799e-15,1.95312796174415e-08,-7.37957086865736e-15,-0.00648215304045418,5.48495826938214e-15,-0.00397470082570266
6000000000,3,0.004,0.002,0.750062881834225,-4.24978555350887e-13,5.97700370514746e-06,1.25440516840668e-13,3.72996188540495e-12,8.58343522544005e-13,-1.13136532361887e-14,-1.04830758450494e-08,-6.56639554162998e-15,-0.00486199398159287,-5.34031534075871e-15,-0.00645962945388265
6000000000,3,0.004,0.004,1.11835974171105,-1.15907361611591e-12,-1.41124856163776e-06,5.36660120891102e-13,2.31527071785565e-10,1.69807605434319e-12,-8.1449746100593e-15,-1.20676225654047e-08,-7.97265323810705e-16,-0.00724927143658392,-8.33680044370733e-15,-0.000966680543796427
6000000000,3,0.004,0.005,1.09276023090383,-1.42818496436184e-12,9.41027225710189e-07,2.85717152659047e-12,2.30244049575281e-10,1.6315451449157e-12,-7.05021585057626e-15,8.13508776196487e-09,1.55868392360327e-15,-0.00708333997503025,-9.1190114780966e-15,0.00190125579914678
6000000000,3,0.004,0.007,0.693603662314475,-5.67016422136611e-13,-3.80385568596534e-06,2.57689380282667e-12,2.49187971805837e-12,1.04669466582535e-12,-5.42464608919727e-15,6.77120513987625e-09,-4.75426124209552e-15,-0.00449601003628253,-5.06660819394915e-15,0.00621278787845227
6000000000,3,0.011,0.002,0.750059963783119,-3.04301324928885e-13,-1.74533865067862e-07,-7.31405776780842e-13,5.79552888544966e-11,2.33440385478891e-13,1.8007695339764e-15,-2.04200402705769e-08,-4.88154003739504e-15,-0.00486187168701072,4.57970717773693e-15,-0.00645948133906306
6000000000,3,0.011,0.004,1.11835025277967,-1.72939653124133e-13,1.9735172383436e-08,-3.96189111578346e-13,-1.345722547161e-09,4.49629119130806e-13,4.13578332972596e-15,-3.38868486288149e-10,-1.83338520187712e-14,-0.00724923138931264,1.07042927978715e-14,-0.00096668438235776
6000000000,3,0.011,0.005,1.09275599040378,-1.41619398503692e-13,7.82704511474958e-07,-3.97753379465016e-13,-6.95143422632016e-10,4.22875314181199e-13,7.33055921405966e-15,7.72964116375544e-09,-4.73699006094463e-15,-0.00708328488650396,1.51052138950428e-14,0.00190124839204526
6000000000,3,0.011,0.007,0.693601087116314,-1.05173863054007e-12,6.69656913561196e-07,2.45399947631258e-13,6.03099103588738e-11,2.8690411255174e-13,-3.51655747891017e-15,-9.47743051393009e-09,-1.18698503987473e-14,-0.00449601111033859,2.13895789865891e-14,0.00621279593754423
6000000000,3,0.016,0.002,0.750062328352226,-1.68631469198158e-12,-9.86862790173821e-06,-1.59090323402132e-12,-8.68486855488264e-11,-2.65659275353365e-13,1.76468459278326e-14,-3.7872431345527e-08,-6.78627292532639e-15,-0.00486189518947187,-1.59314228513966e-14,-0.00645955434454462
6000000000,3,0.016,0.004,1.11836465871777,-2.37438955650404e-12,-4.6384901796224e-07,-8.72963543416034e-13,4.62677163468863e-10,-8.68432089723585e-13,1.19162174942284e-14,-2.06817137189496e-08,-1.51677197514892e-14,-0.00724938017638454,-1.65099545080081e-15,-0.000966711412125099
6000000000,3,0.016,0.005,1.09276020464075,-2.39290884300388e-12,-9.54483549906962e-07,-1.64317517010116e-12,2.21406153527986e-09,-8.62187871915242e-13,1.41101004470924e-14,-7.306261356977e-09,-1.45590735834641e-14,-0.00708334095329965,2.97858152968401e-15,0.00190125334772396
6000000000,3,0.016,0.007,0.693603614457718,-1.24957950984304e-12,3.6063240757127e-06,-1.64074399183208e-12,-8.24373971429399e-11,-5.7749117090643e-13,1.40609862808703e-14,-6.53811983193163e-09,-2.10164576233262e-15,-0.00449600796796077,7.16039622587018e-15,0.00621278676192314
6000000000,4,0.009,0.003,-0.0733112652131868,-6.38088810820188e-13,-0.397913184899826,-5.60940495984599e-13,1,-0,8.40944096498427e-15,0.00122051268044723,3.27648049586837e-15,2.27297322342473e-09,-6.69489628110964e-15,8.94830179054913e-05
6000000000,4,0.004,0.002,-0.283368314767017,1.63842044511745e-12,-0.376946074486557,-1.35123295070227e-12,0.44477046248668,-2.96374103958853e-15,-1.55588712764421e-15,0.00115616305104508,-9.55755625465837e-15,-3.75684439537899e-10,1.66968150204375e-14,0.000736629716208394
6000000000,4,0.004,0.004,-0.426492469219822,2.59805055085641e-12,-0.0663872685406472,-7.07575996794281e-13,0.669381935034958,-3.74111870799417e-13,1.91192420039926e-15,0.000203618242371227,7.74005524327552e-15,1.00314659120879e-08,4.44546318927396e-15,0.000129738249168873
6000000000,4,0.004,0.005,-0.41685703103736,2.90625731940392e-12,0.14619820468922,-1.78089278239215e-12,0.654261335635634,-5.05504790227199e-13,-3.31065300173896e-15,-0.000183027167793042,1.91135287040074e-14,2.55897337575069e-09,-3.80680517465418e-15,-0.00011661452454888
6000000000,4,0.004,0.007,-0.262213186524061,1.44768671823993e-12,0.440892216028187,-2.32115050753719e-13,0.411564773096235,-4.12807970328723e-13,-4.57004180018402e-15,-0.000551960786564033,8.49260462969356e-15,-2.99584909506404e-10,-1.85747784996481e-14,-0.00035167299817619
6000000000,4,0.011,0.002,0.054790616390171,-1.17781731182398e-12,-0.633384753414292,-8.4258997692912e-13,0.747367846962485,-6.18165690090721e-14,-5.04059466105249e-15,0.00194274701735711,-2.62469430183445e-14,6.69370498638541e-09,-1.06079483204955e-14,-0.000142433720008382
6000000000,4,0.011,0.004,0.0824647413397783,-2.06054124796708e-12,-0.111553667677949,2.20998608596873e-13,1.12479919273553,4.90142100531919e-13,-1.52128737992713e-15,0.000342161333070148,6.89584489568307e-16,-6.87434230990525e-10,-2.95926879015092e-15,-2.50857886274177e-05
6000000000,4,0.011,0.005,0.0806039486583754,-1.8095292004403e-12,0.245662319201962,1.29397421041959e-12,1.09939171503746,3.44284896852059e-13,-1.9196905562537e-14,-0.00030755400189981,-1.12092983064212e-14,-1.11465317894051e-10,3.04240784018124e-15,2.25458804927454e-05
6000000000,4,0.011,0.007,0.0507023123640294,-1.4936905930874e-12,0.740844310314457,2.30459439843435e-12,0.691572893400431,4.03418070644542e-13,-2.0775659594932e-15,-0.000927495829945505,-1.51578419192414e-14,-4.99824417797485e-10,6.93742457057732e-15,6.80007623616088e-05
6000000000,4,0.016,0.002,0.283374056567406,-2.67029004409516e-12,-0.376942331548695,-8.88315001513761e-13,0.444767469191303,-7.74806278214055e-14,2.27158657002064e-14,0.00115617318704787,-8.36477293863525e-15,6.58150149298061e-09,-2.5597905443314e-14,-0.000736597421091733
6000000000,4,0.016,0.004,0.426503073069685,-3.68269730141551e-12,-0.0663924963495977,-1.39185613172698e-13,0.669381474034949,9.20917482624761e-13,1.40624849406149e-14,0.000203643762606377,-2.67519362783614e-14,-1.04844384552006e-08,-3.14325318099141e-16,-0.000129745139748618
6000000000,4,0.016,0.005,0.416856838169729,-3.59366147623824e-12,0.146198086685646,6.94485296752506e-13,0.65426133823721,-2.38662819724815e-14,3.15228730462601e-15,-0.000183027500751743,-3.04645638682752e-14,-2.03834980836509e-09,1.23066842628196e-14,0.000116613389532344
6000000000,4,0.016,0.007,0.262213067307757,-2.18920852318042e-12,0.440891718815962,8.44080540726781e-13,0.411564719263179,5.10591414855097e-13,-1.49450465657261e-14,-0.000551960363607602,-1.81366814051736e-14,9.85343814881383e-11,2.7252385583544e-14,0.000351673010285429
6000000000,5,0.009,0.003,-0.347778461984694,-8.58234197247434e-12,4.74478595470742e-06,7.46544796782174e-12,1,-0,-5.32293880115698e-14,0.00397488851421221,-5.76774536953647e-14,0.00200710709962469,-4.08659291252698e-14,0.00138237985434506
6000000000,5,0.004,0.002,-1.34906844540662,-2.02467280835917e-11,-3.25964175443588e-06,5.50443154042126e-12,0.446375752025819,2.10763919827757e-13,-4.74597677198961e-14,0.00384430577938383,-1.64635077238068e-13,0.00778543738443157,-2.06105956563129e-13,0.0116185717090049
6000000000,5,0.004,0.004,-2.01154186237728,-2.94996366806967e-11,-2.50676862435134e-06,1.04398780110384e-12,0.665549975176833,-9.15477570536811e-13,-3.22155897054605e-15,0.000575261213124567,-2.30017203119678e-13,0.0116084702520506,-3.05987356522958e-14,0.00173874517370819
6000000000,5,0.004,0.005,-1.96549516980947,-2.84976202081505e-11,4.07256892200746e-06,-4.89682970898088e-12,0.650315963881105,-1.07738623996659e-12,1.69504366099199e-14,-0.00113144726395028,-2.22377839608672e-13,0.0113427240796555,5.8895955334172e-14,-0.00341970975308514
6000000000,5,0.004,0.007,-1.24752238123769,-1.8133385598914e-11,1.09979311019382e-06,-8.81868230003734e-12,0.412775224851497,-9.07029544328738e-13,5.63511468657262e-14,-0.00369737772618418,-1.29136480718448e-13,0.00719939528723854,1.92748283061776e-13,-0.0111745885497699
6000000000,5,0.011,0.002,0.260854949521059,9.45510040943665e-13,-1.53127067046013e-05,1.13229395461033e-11,0.750065060000789,7.70060246236354e-14,-1.00034111937551e-13,0.00645945624129939,-3.70043603760669e-15,-0.00150540917582282,1.78773915861596e-14,-0.00224654779023159
6000000000,5,0.011,0.004,0.388952459796832,1.04579505712976e-12,4.13213932336509e-06,2.85085329833575e-12,1.11836012497271,3.59541504980977e-13,-1.85432790709327e-14,0.000966690149542963,2.49056909639024e-14,-0.0022445955125934,4.48752710264784e-15,-0.000336192142131352
6000000000,5,0.011,0.005,0.380053491522721,8.50903231665385e-13,-2.85011750041081e-07,-2.17645658447982e-12,1.09276207637775,2.52459624836721e-13,-4.90976184040936e-15,-0.00190124004752439,4.80723419424818e-15,-0.00219325617109593,2.15641885105461e-15,0.000661152803729035
6000000000,5,0.011,0.007,0.241227618809408,6.28763313226871e-13,-7.89600030079031e-06,-1.12256045908984e-11,0.693606745757439,1.52704195302896e-13,9.8082418347793e-14,-0.00621285481919474,4.38381255697124e-15,-0.00139205424614553,-8.85726020390996e-15,0.00216075928439218
6000000000,5,0.016,0.002,1.34908861878548,1.56770940523259e-11,-6.93213898473546e-06,6.24170077429567e-12,0.446372577250927,-6.104766223074e-13,-2.77008632733434e-14,0.00384424987155993,1.24273565733282e-13,-0.00778535620823493,1.62619549093161e-13,-0.0116180389857205
6000000000,5,0.016,0.004,2.0115625483227,2.3512920831619e-11,-8.40717350808102e-06,7.6342586453696e-13,0.665549495935106,4.20465073639159e-13,1.3691376954202e-14,0.000575325486299731,1.7848413160553e-13,-0.0116087594202217,2.33834157813078e-14,-0.0017388521511639
6000000000,5,0.016,0.005,1.9654944554739,2.28610025588091e-11,3.71789703241033e-06,-3.83193359680714e-12,0.650315961929962,-9.06197228526823e-13,1.6330616866496e-14,-0.0011314465980787,1.67914291986122e-13,-0.0113427198923469,-4.82790119438792e-14,0.00341969265462918
6000000000,5,0.016,0.007,1.24752237233843,1.44076840940601e-11,5.33957212788339e-07,-8.82107616070871e-12,0.412775168375948,1.83208026758072e-13,3.87651368611037e-14,-0.00369736962133982,9.07422305248227e-14,-0.00719939067231828,-1.61532054812224e-13,0.0111745882519655
7000000000,1,0.009,0.003,-0.0513339933719978,5.44376703125437e-15,1,0,-1.13706645429667e-15,0.177377191552158,-0.00255803932970846,6.56964082247413e-18,-3.00602307258015e-10,6.62921673921759e-18,1.09895365104173e-16,0.000740281086210719
7000000000,1,0.004,0.002,-0.180080668485491,-1.92939773352551e-15,0.628209211720931,4.58772753653598e-15,-5.33386246881734e-16,0.0716066544435402,-0.00160698117688118,-4.58047763284896e-18,-3.79780241267458e-11,-4.06968901847209e-18,-3.35786854109959e-17,0.00404136440158834
7000000000,1,0.004,0.004,-0.345378037409824,-6.01067093293686e-15,0.549736468611428,-9.95995804923508e-16,-8.33293904904359e-16,0.137334030898541,-0.00140625433192158,-5.45841607010613e-18,-2.77651843109349e-10,-7.97383349004563e-18,-4.5746986028283e-17,0.00353654743241484
7000000000,1,0.004,0.005,-0.337730694651479,4.16047569264555e-15,1.25397502274334,1.33859555045409e-14,-6.10591163417661e-16,0.134292972862322,-0.00130927465453967,-8.12291785671302e-18,-1.16616979491959e-10,7.14647635066588e-18,2.96683810807995e-16,0.00329266162457269
7000000000,1,0.004,0.007,-0.165364214787838,2.70263125592339e-15,1.17962202854962,1.2640485001311e-14,-1.07410165886052e-16,0.0657553374989682,-0.00123164345040896,-2.27261652043199e-17,8.54026210815977e-10,8.77197213644882e-19,-2.0288504532084e-16,0.00309742565442332
7000000000,1,0.011,0.002,0.0348227380778106,6.50674074903483e-15,1.05561364702374,7.35052474162781e-15,1.99607042954933e-16,0.120324595293633,-0.00270030154055455,-3.32615802943141e-18,-8.62873150386147e-10,-1.14070564170312e-18,-6.58382920673967e-17,-0.000781451220773518
7000000000,1,0.011,0.004,0.0667834870536931,4.38217315513254e-15,0.923752677703865,9.27307654155158e-15,3.86172687085867e-17,0.230770056726426,-0.00236299606101134,-1.91155455880833e-17,-8.10856985507739e-11,-6.64762316786779e-18,-3.23327013592223e-16,-0.000683837817668062
7000000000,1,0.011,0.005,0.0653046977657566,-4.46915572271627e-15,2.10712461408751,8.54598761504972e-15,8.88115043095119e-17,0.225659993192677,-0.00220004671322282,-7.35315845847139e-18,4.40509504969901e-10,-1.63644562137764e-17,-1.48897824983919e-16,-0.000636681160918594
