#frequency,mode,x,y,Ex_re,Ex_im,Ey_re,Ey_im,Ez_re,Ez_im,Hx_re,Hx_im,Hy_re,Hy_im,Hz_re,Hz_im
6e+09,1,0.009,0.003,-0.0522015128713515,3.62046466940077e-14,1,0,0.079274120750226,-1.905769438858e-12,-8.35370508823084e-14,0.00132912898122185,-8.03693763593595e-15,-7.62199932211382e-11,9.00398145922217e-16,0.000875224865145118
6000000000,1,0.004,0.002,-0.182331470183088,4.81875397884209e-15,0.61945997628194,6.68212040761473e-14,0.0318628990713044,1.20322746684368e-13,2.10392520753562e-14,0.000823339493492391,3.106440273867e-14,1.24681694850907e-10,-5.99487580742149e-15,0.00471149535175658
6000000000,1,0.004,0.004,-0.353422010228918,1.77414837555072e-13,0.561554138637932,8.72721836278881e-15,0.0617609822119091,-1.38930731726624e-13,-1.82431479873979e-15,0.000746379625741077,3.77109925675269e-14,4.38529516567904e-11,-1.58687957113726e-15,0.00427108520859676
6000000000,1,0.004,0.005,-0.347671589502693,1.90956235670929e-13,1.30671214365942,7.81506724644851e-14,0.0607559951098121,1.64165437808308e-12,1.1528571011212e-14,0.000708893171814771,-3.06992061550123e-15,8.6250271304694e-11,-2.88601285435657e-15,0.00405657775682159
6000000000,1,0.004,0.007,-0.171280160566584,-2.58110736736044e-13,1.25105024437584,1.88541962003175e-13,0.0299319075829934,6.81032937284291e-13,-1.33793985004429e-14,0.000678696611793644,1.18020548703549e-14,-4.19203428844242e-10,1.84917223690176e-15,0.00388377898232488
6000000000,1,0.011,0.002,0.0352566695826704,1.64412194572516e-13,1.04091253252562,3.99152637672741e-13,0.0535409802353906,-8.11462667264305e-13,-3.05703191985367e-14,0.00138350866317491,1.26912329413513e-13,1.51582570375773e-09,9.01440633559735e-15,-0.000911030940966954
6000000000,1,0.011,0.004,0.0683388265616075,-1.39807617956383e-14,0.943610965590407,-1.09419536380081e-13,0.103780430873544,7.73594495604912e-13,-7.49669865044989e-14,0.0012541801374157,1.86532416399826e-14,8.2598929751314e-12,-1.70687989004299e-15,-0.000825872624734324
6000000000,1,0.011,0.005,0.0672270145951803,-1.34031451713773e-14,2.19574120445312,-1.84034362015015e-13,0.102091697558503,5.03058652056132e-14,2.53481412291163e-14,0.00119119220620296,-2.5877750062485e-14,-1.12897594347029e-10,-1.11715457224675e-15,-0.000784394666455504
6000000000,1,0.011,0.007,0.0331208767843885,2.03689402280642e-13,2.10221116059771,5.29912898043323e-14,0.0502962689774041,3.17882845676491e-13,-3.13032816277956e-14,0.0011404530493729,-1.94994742043096e-14,-2.0308064611952e-10,-6.76691974007558e-16,-0.000750982509986305
6000000000,1,0.016,0.002,0.1823314702251,2.25818746882434e-13,0.619459976338572,2.59718550139899e-13,0.0318628990701074,-1.41182644962133e-12,3.47815155831407e-16,0.000823339493645116,-8.29834975636417e-15,-1.2439309816342e-10,-5.05647006919767e-15,-0.00471149535061611
6000000000,1,0.016,0.004,0.353422010391296,5.57005108108527e-13,0.561554138386858,1.28051874793951e-13,0.0617609822111156,-1.44791471750929e-12,-4.48843527631615e-14,0.000746379625534001,1.51820898483215e-15,-4.41120230251436e-11,1.35276908332563e-15,-0.00427108520286438
6000000000,1,0.016,0.005,0.347671604335816,8.44474218131452e-13,1.3067121178081,-4.21869490981055e-13,0.0607559952758998,-7.18445914651264e-13,-4.22568412545469e-14,0.00070889316883439,1.75701956012025e-14,-8.57156631297384e-11,3.30386836964168e-16,-0.00405657774727226
6000000000,1,0.016,0.007,0.1712801748788,2.41945562439639e-13,1.25105026308195,-4.42439716350102e-13,0.0299319074426057,-5.81855775295014e-13,2.29783116129532e-14,0.000678696616758359,-1.26611958604335e-14,4.09603358000304e-10,-4.74520629864283e-15,-0.00388377904350764
6000000000,2,0.009,0.003,1,-0,0.492913066721928,-1.3296446176112e-13,0.284087309777852,-1.70450379364956e-12,-4.00365064743274e-14,0.00476308359419908,-3.20401561686227e-14,-1.32075673229245e-08,8.58794878774715e-15,-0.0167662257323305
6000000000,2,0.004,0.002,-0.219403493237832,-2.28645181233597e-13,1.57910882543191,7.75032201038167e-13,0.590515880765732,-3.72507346139663e-13,1.38446300724717e-14,0.0152586844042194,1.28808690111483e-14,8.55382862884191e-08,-5.46904536691364e-15,0.00567054934609936
6000000000,2,0.004,0.004,-0.425377722162311,-6.20564245184047e-13,1.43147978979053,9.08894985420252e-13,1.14461620044257,-3.12605680119437e-13,8.9889308364124e-15,0.013832863104149,-1.78829071853918e-14,-2.6128582615427e-08,1.15741208131149e-15,0.0051404961423883
6000000000,2,0.004,0.005,-0.418484085990042,-4.99730282109265e-13,3.33105093997111,5.23280692769044e-13,1.12599077468491,-1.0597150564139e-12,-7.58714996901722e-15,0.0131380345427365,-1.43459668853937e-15,3.11785823992173e-08,7.79258698673216e-15,0.00488233784264291
6000000000,2,0.004,0.007,-0.206035461436208,-2.90693831711042e-14,3.18912136278709,6.54760120689142e-13,0.554728461915137,-4.51128625386498e-13,-4.2262713287999e-14,0.0125780896344223,2.44426080539949e-14,-8.45482360520359e-08,1.04564499919969e-14,0.00467428131704414
6000000000,2,0.011,0.002,0.675383156855705,-3.09798827849396e-13,-0.513086821784937,1.97602079564342e-13,-0.191870207466867,-9.24564747306215e-13,2.68064097683308e-14,-0.00495792611849144,5.60788058385786e-14,-2.70741472914444e-08,-9.6215768051553e-17,-0.0174519977210927
6000000000,2,0.011,0.004,1.30911511214757,-3.82417166139902e-13,-0.465120080499763,-8.19088051332284e-13,-0.37190842717725,-2.2438279775329e-12,8.53225936235602e-15,-0.004494531025533,-2.16542819789344e-14,7.13191692969347e-09,3.17141085946881e-15,-0.0158206352122199
6000000000,2,0.011,0.005,1.28780673737335,-4.55996273514704e-13,-1.08231839708896,-2.02325673104068e-12,-0.365857422366984,-2.00538915503322e-12,-1.80667577703857e-14,-0.00426876330048534,-4.11640044528034e-14,2.6921227110739e-08,2.04431131291017e-15,-0.0150260656308548
6000000000,2,0.011,0.007,0.634458460808253,-1.82660108607845e-13,-1.03621041323709,-1.15400941804064e-12,-0.180243290540683,9.95893449791126e-14,-6.64459979818335e-15,-0.00408694939419,-1.27678335269202e-14,2.08601315361899e-08,-3.26416307884392e-15,-0.0143863196070727
6000000000,2,0.016,0.002,-0.219403493180806,-1.17716945049935e-12,-1.57910882528176,4.13211849881713e-13,-0.590515880786466,-1.04852207580211e-12,-9.78355794152607e-15,-0.0152586844158001,1.4366523569667e-14,8.5523233074609e-08,-1.57385746518008e-14,0.00567054939725037
6000000000,2,0.016,0.004,-0.425377723701945,-2.00125675625396e-12,-1.4314797825022,-2.60629219425475e-14,-1.14461620059639,-5.63080891175935e-13,-4.42488106521781e-15,-0.0138328630829404,-7.58003341118474e-15,-2.61192470197262e-08,-5.17362430247025e-15,0.00514049611973365
6000000000,2,0.016,0.005,-0.418484058205572,-2.48007993993128e-12,-3.33105006221582,-4.1075337281387e-13,-1.12599082168298,-6.21983819941713e-13,8.88571859869703e-15,-0.0131380340273401,-4.00572030484273e-15,3.07648878308052e-08,-2.26904631196922e-15,0.00488233805799324
6000000000,2,0.016,0.007,-0.206036076246908,-9.9658104454075e-13,-3.18912173439596,-4.60446520741134e-13,-0.554728400774629,2.07931127705642e-13,3.23447469633093e-14,-0.0125780919639916,-1.13322504927546e-14,-8.41418472635686e-08,1.01197664806767e-14,0.00467428128971874
6000000000,3,0.009,0.003,1,-0,3.57929817548863e-06,-2.97653677918163e-13,-1.28595359926279e-10,1.87316225102275e-12,4.99104956073596e-15,1.93370846264613e-08,-6.55617400525213e-16,-0.00648216003014256,5.17973484035881e-15,-0.00397471193430831
6000000000,3,0.004,0.002,0.750064835536466,-1.2657451238051e-12,5.66732808214104e-06,5.38413171991911e-13,7.56862995991727e-13,1.18596716534269e-12,-2.4347912729541e-14,-1.01081010427193e-08,-1.7251522411939e-15,-0.00486200391686026,-1.0939657472279e-14,-0.00645964520255951
6000000000,3,0.004,0.004,1.11836292265438,-1.86330388929395e-12,-1.53731301430049e-06,6.96320271610695e-13,3.470064625635e-10,2.00179137421035e-12,-1.27721668080507e-14,-1.3005989183797e-08,1.55366424102721e-14,-0.00724929286880135,-4.72668773313678e-15,-0.000966683800645037
6000000000,3,0.004,0.005,1.09276317806722,-1.51965002298075e-12,9.43974756300951e-07,2.01785306942294e-12,3.51528195578824e-10,2.2907497539043e-12,-1.46051958139421e-14,8.12666076144337e-09,-1.46846587475009e-14,-0.00708335908343435,-1.45258437168695e-15,0.00190126088252522
6000000000,3,0.004,0.007,0.693605534467755,-1.17619602900633e-12,-3.8038864489498e-06,2.84761598535205e-12,2.80525463044468e-13,1.23456189101663e-12,3.52224724117079e-15,6.77117714559868e-09,-1.69433824829862e-14,-0.00449602217247861,5.45167028994747e-15,0.00621280464812662
6000000000,3,0.011,0.002,0.750063732577014,1.75145643260252e-13,-5.0725897403817e-06,-1.13734602817166e-12,5.27402408829291e-11,9.04920384056284e-13,-4.37558732915722e-15,-1.16460078639692e-08,1.04997711762368e-14,-0.0048620758219502,2.01609544162211e-15,-0.00645972839909049
6000000000,3,0.011,0.004,1.11835761164971,4.81111491957504e-14,2.09194075810786e-06,-2.99063111789754e-13,-1.56277090894129e-09,1.89027883820116e-12,3.65194697886332e-15,8.85354630860184e-09,-1.06943440531909e-14,-0.00724922167531936,2.70995062871544e-15,-0.000966683465469171
6000000000,3,0.011,0.005,1.09275888038096,-4.28261884512173e-14,7.77993888516914e-07,2.68946545208649e-13,-2.55374805562217e-09,1.66485914214013e-12,1.22861651519618e-14,6.46966226485251e-09,-1.10467931368421e-14,-0.00708330065272449,4.87330505722512e-15,0.00190125667862161
6000000000,3,0.011,0.007,0.693602960062337,-1.11153630812591e-13,6.69896439511787e-07,1.04087940533934e-12,5.41634604517412e-11,1.02835066625575e-12,-4.44572175386824e-15,-9.4679659898937e-09,-5.97672007883264e-15,-0.00449602327624473,1.1975797016331e-14,0.00621281258675364
6000000000,3,0.016,0.002,0.750064835443439,1.31334750089886e-14,-5.66746373908514e-06,-6.64862092983527e-13,7.02288891034084e-14,2.28517761715522e-13,-4.84677454757503e-15,1.01101748752828e-08,2.87602972905462e-15,-0.00486200390477202,-1.82673895385202e-15,-0.00645964520434816
6000000000,3,0.016,0.004,1.11836292194632,-4.77003077720403e-14,1.53811748181366e-06,-5.39915655548012e-13,-2.58664313855974e-10,1.97950918360958e-13,2.04226358812266e-15,1.29990074418866e-08,-5.95542418082357e-15,-0.00724929286294176,-1.1667198847156e-15,-0.000966683747253113
6000000000,3,0.016,0.005,1.09276328546385,-9.57245555794732e-14,-1.0272559686756e-06,-1.19460010995676e-12,-2.57146022173509e-10,2.23874551006534e-13,7.91172389644577e-15,-8.75673101410863e-09,2.01528869616086e-15,-0.00708336030876583,-8.43596510849078e-17,0.00190126139520136
6000000000,3,0.016,0.007,0.693605488225762,3.31091651957979e-15,3.60718871917354e-06,-1.22655115915323e-12,4.21830873949892e-13,2.28303515989586e-13,1.09093604241238e-14,-6.52796896373876e-09,3.84523328937417e-15,-0.00449602010545279,2.48695876598261e-15,0.00621280349761124
6000000000,4,0.009,0.003,-0.0733173740214863,-1.10439818375304e-12,-0.397914244054009,-4.11075482976066e-13,1,-0,-1.24104377271712e-14,0.00122050153335541,-5.55261823661141e-15,1.33353468872203e-09,-5.7892104209558e-15,8.94817755392708e-05
6000000000,4,0.004,0.002,-0.283368198430341,6.95143663504099e-13,-0.376945469631255,-5.4802605415486e-13,0.444770436647425,-9.29894008793871e-14,1.57331912641002e-14,0.00115616185201027,1.1864650318254e-14,2.03243546008943e-10,7.99480898895294e-15,0.000736629736818271
6000000000,4,0.004,0.004,-0.426492620049848,1.14584401205167e-12,-0.0663871110395425,-1.13007243475189e-13,0.669382014081603,-1.49875133211262e-14,-1.73791043369405e-15,0.000203618015508175,6.60236688889815e-15,9.90622822942772e-09,5.53599624208626e-16,0.000129738473153052
6000000000,4,0.004,0.005,-0.41685707327678,1.33907266973916e-12,0.146198216463635,2.89181331794627e-13,0.65426140939742,3.12090245561466e-13,-2.15404857289861e-16,-0.000183027167303365,1.26228842355124e-14,2.57522691964233e-09,-4.20665939339632e-15,-0.000116614515135927
6000000000,4,0.004,0.007,-0.262213216581353,6.85599048992706e-13,0.440892266317114,1.16618035137055e-12,0.411564820007349,1.01240508322673e-13,-6.32497481772902e-15,-0.000551960851288781,1.77956391904559e-14,-2.99067443477652e-10,-1.10674274549985e-14,-0.000351673036272373
6000000000,4,0.011,0.002,0.0548027925819789,-1.31559283395144e-12,-0.633406675652856,-5.50925262288364e-13,0.747368312553757,1.73792313498904e-13,-7.13132761465799e-15,0.00194281281939816,1.1484081527869e-14,3.89627515043308e-09,-1.28215407487371e-14,-0.000142431588318221
6000000000,4,0.011,0.004,0.0824661845185848,-1.94042163833709e-12,-0.111552113820262,1.71925027405765e-13,1.12479970150925,6.86346695987654e-13,-9.54876461469458e-15,0.000342158738265647,-1.32698875364864e-14,7.18685558447136e-11,-3.92776062280928e-15,-2.50909743707306e-05
6000000000,4,0.011,0.005,0.0806038976051954,-1.85016853558088e-12,0.245662290056409,1.11540716775713e-12,1.0993918226036,3.50553684445987e-13,8.533564827124e-16,-0.000307554597087725,-1.16505194417155e-14,-4.14199922767419e-10,1.82250148594685e-15,2.25459847013844e-05
6000000000,4,0.011,0.007,0.0507023183093038,-1.01096094046083e-12,0.740844393486608,1.67778981833607e-12,0.691572971779788,2.13606345393786e-13,-1.22055090305949e-14,-0.000927495934580389,-9.61092556725188e-15,-4.96733958577599e-10,9.57573333889747e-15,6.80007753764115e-05
6000000000,4,0.016,0.002,0.283368198102116,-1.97888999837492e-12,-0.376945470139705,-1.70360556702928e-13,0.444770436669369,-3.80747404852166e-14,-3.61484253213921e-16,0.00115616185619322,-1.73689173788778e-14,-2.00106972658369e-10,-1.74806591779261e-14,-0.000736629733057664
6000000000,4,0.016,0.004,0.426492618164151,-2.61448384723817e-12,-0.0663871092960046,2.85633529346038e-13,0.66938201382055,9.37012466401574e-14,-3.0080367095638e-15,0.000203618006331701,-2.61394082593476e-14,-9.91249367185405e-09,-1.62496993469427e-15,-0.000129738463812129
6000000000,4,0.016,0.005,0.416857134381059,-2.64716722050284e-12,0.146198101568828,1.04813415348433e-12,0.65426141125156,2.96415689977687e-13,-1.15761620574025e-14,-0.000183027073004423,-2.28700133236632e-14,-2.55742724988146e-09,6.50781539031078e-15,0.000116614593065938
6000000000,4,0.016,0.007,0.262213098784023,-1.6082206319457e-12,0.440891769288042,1.34992483961903e-12,0.411564766086863,-8.43956122475459e-14,-6.11125674947156e-15,-0.000551960439559785,-1.43012288035865e-14,1.01087630017103e-10,1.86493800950296e-14,0.000351673004810682
6000000000,5,0.009,0.003,-0.347788900269658,-9.01881593789972e-12,3.11296275517225e-07,1.04674896781563e-11,1,0,-1.00900954109771e-13,0.00397481231750641,-9.96315650392942e-14,0.00200714702623393,-4.51316974214012e-14,0.00138235787820372
6000000000,5,0.004,0.002,-1.34906855008416,-2.79832832372193e-11,-2.42631714890486e-06,8.65567058407379e-12,0.44637571715675,7.32309947122981e-13,-5.99505169079346e-14,0.00384429526226542,-1.92375245703074e-13,0.00778543158780872,-2.84209998896409e-13,0.0116185718182505
6000000000,5,0.004,0.004,-2.01154199509688,-4.17055556770969e-11,-2.2068565753027e-06,1.97442670917747e-12,0.665550045515348,1.3857434632713e-12,-5.83415168676263e-15,0.000575261269037828,-2.85203779079546e-13,0.011608472658011,-4.88661480506789e-14,0.00173874874091884
6000000000,5,0.004,0.005,-1.96549534831352,-4.0257334013304e-11,4.06777373820719e-06,-1.952842801812e-12,0.650316028803302,1.34443452669283e-12,2.28149097494705e-14,-0.0011314472823896,-2.91338258256012e-13,0.0113427251787465,7.68539272468492e-14,-0.00341970969896533
6000000000,5,0.004,0.007,-1.24752250256789,-2.58560382929845e-11,1.10225306128572e-06,-7.75004240268216e-12,0.412775266617863,5.22593792455204e-13,6.61657959207796e-14,-0.00369737808955628,-1.67438443155307e-13,0.00719939597812243,2.6879519625726e-13,-0.0111745895603989
6000000000,5,0.011,0.002,0.26088653712741,3.15351166825425e-12,-1.41264509605191e-05,1.66511566534912e-11,0.75006554720475,-1.97228001576617e-13,-1.0930453603582e-13,0.00645980477170005,5.9374738113935e-14,-0.00150568180930804,3.31699102073815e-14,-0.00224651160803945
6000000000,5,0.011,0.004,0.388955064074117,5.09505841421881e-12,2.53305995070857e-06,3.67513549949618e-12,1.11836060771674,-5.7204197119098e-14,-1.4973265324174e-14,0.000966665564313608,3.44076374562164e-14,-0.00224459460057406,8.65527915191605e-15,-0.00033628579532525
6000000000,5,0.011,0.005,0.380053359422839,5.15344445941925e-12,-3.81090306373335e-07,-4.38397635715658e-12,1.09276216492837,-4.37110992025115e-13,2.80899138993917e-14,-0.00190124175065412,1.94828405332238e-14,-0.00219325496471557,-3.7340906014506e-15,0.000661155593528433
6000000000,5,0.011,0.007,0.241227640959122,3.53291698902242e-12,-7.89364198769668e-06,-1.73223769747052e-11,0.693606815405292,-1.11925069227975e-13,1.22283568257727e-13,-0.00621285540317467,4.1356755025105e-15,-0.00139205438386924,-2.34696585853056e-14,0.00216075958599141
6000000000,5,0.016,0.002,1.34906854925982,2.45596267289872e-11,-2.4274680665183e-06,9.77246743989094e-12,0.446375717182989,-7.98377966886208e-13,-6.6429246726737e-14,0.00384429526588523,1.78900124941919e-13,-0.00778543159083058,2.58566611797226e-13,-0.0116185717594869
6000000000,5,0.016,0.004,2.01154199128858,3.67874844708761e-11,-2.20522215023976e-06,1.69086772153745e-12,0.66555004525108,-1.01250829027194e-12,-2.15515146496517e-14,0.000575261201505411,2.55741998173762e-13,-0.0116084726669884,3.88078852188944e-14,-0.00173874844345678
6000000000,5,0.016,0.005,1.96549525051956,3.55580036919917e-11,3.86133173892156e-06,-3.97860359573086e-12,0.650316030813401,-1.16166869011762e-12,1.97464202410793e-14,-0.00113144726417501,2.65573757835889e-13,-0.01134272576862,-7.74425647964984e-14,0.00341971230343039
6000000000,5,0.016,0.007,1.24752249500014,2.27877209835068e-11,5.35585920673873e-07,-1.17633694932272e-11,0.412775209834775,-7.41789927543917e-13,8.31554600531199e-14,-0.00369737001870015,1.67490651181381e-13,-0.00719939133777786,-2.56381250204716e-13,0.0111745885277352
7000000000,1,0.009,0.003,-0.0513317856638896,-6.23926674228964e-15,1,0,5.61890446288114e-16,0.177377124182184,-0.00255804488913004,1.43135508021508e-17,5.31838560730775e-11,-2.78985315635946e-18,-3.91390712929665e-16,0.000740283198053055
7000000000,1,0.004,0.002,-0.180080631305895,-1.065027562221e-15,0.628209009990506,-1.29757886927109e-14,-2.96769654681424e-16,0.0716066332058855,-0.00160698071036013,2.24061494642143e-17,-1.09195997474461e-10,1.5703203618307e-18,1.40725078421621e-16,0.00404136325207551
7000000000,1,0.004,0.004,-0.3453779421042,1.22293138435522e-14,0.549736327792375,-1.01531925723883e-14,9.77379372706781e-16,0.137333993496595,-0.00140625394776034,3.5304094784133e-17,-2.76795411737696e-10,-5.41116658588807e-18,3.19380488275013e-16,0.00353654653755041
7000000000,1,0.004,0.005,-0.337730601966548,2.19171417288756e-14,1.25397467854576,-8.98048856949687e-15,1.46472727473755e-15,0.134292935948958,-0.00130927429732549,1.64369826850543e-17,-1.18735551794053e-10,-7.27728469023432e-19,7.893704149712e-17,0.00329266072639663
7000000000,1,0.004,0.007,-0.165364169337178,1.00012675186938e-14,1.17962170428798,-1.72145189281066e-14,6.79103233073503e-16,0.0657553194239527,-0.00123164311167266,1.63042106353481e-17,8.54103410452292e-10,-4.14986993958108e-18,-1.12768670143779e-16,0.00309742480361705
7000000000,1,0.011,0.002,0.0348212368700248,1.82288690178209e-14,1.05561409154487,1.14352243806187e-15,3.354064595186e-16,0.120324546124053,-0.00270031262539351,1.27699580631387e-17,-2.9829195627138e-09,-1.20391194096104e-18,-6.2575056225454e-16,-0.000781451338204741
7000000000,1,0.011,0.004,0.0667834530229532,5.89659178200136e-15,0.923752610344463,-9.31107969007581e-16,1.22627222792473e-15,0.2307699860794,-0.00236299978649494,1.09659009700436e-17,-8.26445519793694e-11,-8.70682492650746e-18,-3.90795607007948e-16,-0.000683839821284319
7000000000,1,0.011,0.005,0.0653046868912471,6.02425909998064e-15,2.10712406597093,-1.96186349746253e-14,1.36064367111707e-15,0.22565993276568,-0.00220004630871152,2.80176362524733e-17,1.90856369599108e-10,5.25684981828297e-18,-1.02079042538887e-16,-0.000636681057941228
7000000000,1,0.011,0.007,0.0319769226070135,3.92456583641875e-15,1.98218595541094,-1.75063682151095e-14,1.28344531730607e-15,0.110492369350536,-0.00206960022457612,2.73733692697714e-17,4.78577990832215e-10,1.15746288602074e-18,7.85383986676895e-16,-0.00059893021414092
