#frequency,mode,x,y,Ex_re,Ex_im,Ey_re,Ey_im,Ez_re,Ez_im,Hx_re,Hx_im,Hy_re,Hy_im,Hz_re,Hz_im
6e+09,1,0.009,0.003,-0.0522015128717343,-2.97068035107563e-13,1,0,0.079274120746787,2.34722419516076e-12,-2.05126934687561e-15,0.00132912898119826,1.52930668943072e-14,-7.59648804328332e-11,-9.20634181221694e-15,0.000875224865149887
6000000000,1,0.004,0.002,-0.182331470183182,1.95754972613609e-13,0.619459976281438,-1.35583694198384e-13,0.0318628990689578,5.40929211075047e-13,9.49470148937604e-14,0.000823339493535507,6.89924686348842e-14,1.24637982208209e-10,1.16451055399117e-14,0.00471149535175467
6000000000,1,0.004,0.004,-0.35342201022915,2.33234118150634e-13,0.561554138637153,-2.02342603603998e-13,0.0617609822085106,3.38925588774161e-12,5.01848130615112e-14,0.000746379625657736,3.70967864194358e-14,4.3769132759124e-11,-2.51070467529881e-15,0.00427108520859538
6000000000,1,0.004,0.005,-0.347671589502451,1.4338237883853e-13,1.30671214365877,9.85552624838697e-13,0.0607559951032401,2.42567244465749e-12,7.11654390952319e-15,0.000708893171739292,-2.16442632123294e-14,8.6272208216564e-11,-2.76425807888273e-15,0.00405657775681875
6000000000,1,0.004,0.007,-0.171280160566471,1.99905501214014e-13,1.25105024437511,6.85606517612276e-13,0.0299319075791044,-5.71851457548232e-13,4.09006557985649e-14,0.000678696611828662,-2.40281319166795e-14,-4.19239485842722e-10,-9.96920967683993e-16,0.00388377898234242
6000000000,1,0.011,0.002,0.0352566695825946,-3.46706055267504e-13,1.0409125325251,-2.99102334219039e-13,0.0535409802309879,5.23360511158724e-13,-5.32157040077916e-14,0.00138350866298763,1.8005500611671e-13,1.51589141532339e-09,-9.32512325726434e-15,-0.000911030940950631
6000000000,1,0.011,0.004,0.0683388265616318,-1.65250524205883e-13,0.943610965590052,1.02868537018361e-13,0.103780430866982,1.73383872518756e-12,1.27956364057728e-13,0.00125418013736351,-7.85194998871969e-14,8.29249623810072e-12,-3.71535232001559e-16,-0.000825872624738219
6000000000,1,0.011,0.005,0.067227014595155,-2.16896094940512e-14,2.19574120445188,4.97645197853634e-13,0.102091697552997,-2.6834348564723e-14,3.53555297219883e-14,0.00119119220608671,-9.42881961318836e-15,-1.1279397814075e-10,2.35322318662063e-15,-0.000784394666459979
6000000000,1,0.011,0.007,0.0331208767839023,-1.82595594176287e-13,2.10221116059629,5.60079223870865e-13,0.0502962689740399,1.86428064580644e-12,2.31935938387808e-14,0.00114045304936735,-6.78378470090093e-14,-2.03072168043274e-10,6.69526844459662e-15,-0.000750982509978341
6000000000,1,0.016,0.002,0.182331470225109,9.65052097559571e-14,0.619459976337957,5.42578679314581e-14,0.0318628990704575,-4.59611177801323e-13,-1.32863021350487e-14,0.000823339493702346,4.53941579690013e-14,-1.24398207825445e-10,1.17624155965945e-14,-0.00471149535061078
6000000000,1,0.016,0.004,0.353422010391379,1.21410619117684e-13,0.561554138386084,-1.42977628190029e-13,0.0617609822094835,5.43003493732558e-13,3.2358137752922e-14,0.000746379625501516,-6.7585102010864e-14,-4.41168893293696e-11,4.55416901650193e-16,-0.00427108520286269
6000000000,1,0.016,0.005,0.347671604335985,-1.78657349958309e-13,1.30671211780631,-1.7911326286858e-13,0.0607559952731727,2.21893950573788e-12,1.8021361178531e-15,0.000708893168735218,2.08608322522514e-16,-8.5745208000066e-11,4.10262666207025e-16,-0.00405657774726632
6000000000,1,0.016,0.007,0.171280174878739,-1.09011992334929e-13,1.2510502630808,-5.73704365906161e-15,0.0299319074421742,7.92100073698449e-13,3.96081755999533e-14,0.00067869661665836,8.77271124749177e-14,4.09610668624722e-10,7.94193033992806e-15,-0.00388377904352452
6000000000,2,0.009,0.003,1,-0,0.492913066720008,-1.63951492382869e-12,0.284087309779905,-2.27454884662499e-12,7.06809555728235e-15,0.00476308359416559,1.76169839589433e-14,-1.32076061800619e-08,-3.68650321809529e-14,-0.016766225732307
6000000000,2,0.004,0.002,-0.219403493236356,3.27246114899909e-12,1.57910882542723,-3.99837849365583e-12,0.590515880765018,-2.76907296481251e-12,5.37118800376537e-14,0.0152586844041253,1.81496646427566e-14,8.55382821198885e-08,3.70758898388047e-14,0.00567054934606956
6000000000,2,0.004,0.004,-0.42537772215904,5.33008241611355e-12,1.43147978978651,-4.65190665593186e-12,1.14461620044175,-4.88731396296891e-12,4.78808764597155e-14,0.0138328631041098,3.00443269847195e-14,-2.61285423723034e-08,1.98555914741571e-14,0.00514049614237201
6000000000,2,0.004,0.005,-0.418484085986471,4.96298667758563e-12,3.33105093996432,-1.07008136190498e-11,1.12599077468269,-4.73134984236832e-12,4.51766635024388e-14,0.0131380345426888,1.94945160062391e-14,3.11785562945224e-08,1.06174750773762e-14,0.00488233784263235
6000000000,2,0.004,0.007,-0.206035461434211,2.79160952537651e-12,3.18912136278193,-9.98374750040197e-12,0.554728461913902,-2.17435200704904e-12,3.65859553134621e-14,0.0125780896344074,1.46284056288172e-14,-8.4548274655634e-08,4.19639726812795e-15,0.00467428131704686
6000000000,2,0.011,0.002,0.675383156855551,4.38420652257704e-13,-0.513086821785217,2.09334020262205e-12,-0.191870207465332,-3.92106455606909e-13,-1.152455979212e-14,-0.00495792611843761,3.14898883727414e-15,-2.70741159821985e-08,-3.14812131526412e-14,-0.017451997721068
6000000000,2,0.011,0.004,1.30911511214756,-7.18665796580396e-13,-0.465120080499535,9.72329411092907e-13,-0.371908427175727,-1.21988373873586e-13,-1.83671403530302e-14,-0.00449453102554817,2.40692732714591e-14,7.13193288713061e-09,-4.60190095620292e-14,-0.0158206352121831
6000000000,2,0.011,0.005,1.28780673737288,-5.90774842453836e-13,-1.08231839708678,2.58315064545736e-12,-0.365857422365645,-1.72384357512575e-13,1.22338655277614e-15,-0.00426876330049827,1.73036276767814e-14,2.69212038971501e-08,-5.15510539585494e-14,-0.0150260656308165
6000000000,2,0.011,0.007,0.634458460808043,2.58666873423856e-13,-1.03621041323513,2.03949084975361e-12,-0.180243290539603,-1.58528121714864e-13,-3.34190485046717e-15,-0.00408694939422744,2.08141080438242e-14,2.08601053695627e-08,-6.35446449141466e-14,-0.0143863196070285
6000000000,2,0.016,0.002,-0.219403493178493,1.88579296364022e-12,-1.57910882527954,3.93267687161864e-12,-0.590515880784017,1.40077103504635e-12,-3.64287777296943e-14,-0.015258684415782,7.17898309318191e-15,8.5523217074867e-08,3.37029130222636e-14,0.00567054939721376
6000000000,2,0.016,0.004,-0.425377723698,3.09510849949422e-12,-1.43147978249922,3.52621336952443e-12,-1.14461620059255,2.74944725718894e-12,-3.31474262834687e-14,-0.0138328630829661,1.54071626814647e-14,-2.6119238874096e-08,1.98561537145638e-14,0.00514049611971876
6000000000,2,0.016,0.005,-0.418484058200849,2.71441296075507e-12,-3.33105006220794,8.41457513554598e-12,-1.12599082167912,2.85945325045082e-12,-4.10925255204266e-14,-0.0131380340273282,1.24262238199865e-14,3.07648911149231e-08,1.21314542370205e-14,0.00488233805798125
6000000000,2,0.016,0.007,-0.206036076244718,1.99715252209011e-12,-3.18912173438874,8.49322653447028e-12,-0.554728400773197,1.61532441139743e-12,-3.37960700257816e-14,-0.0125780919639783,1.23310894855162e-14,-8.41418675940303e-08,1.41897163890798e-15,0.00467428128972893
6000000000,3,0.009,0.003,1,-1.61762622388568e-29,3.5792987103828e-06,-2.16298239951916e-13,-1.30997261814441e-10,6.45657609281301e-13,4.70285032869814e-15,1.93370895103738e-08,7.38162178958608e-15,-0.006482160030157,4.52746290830904e-15,-0.00397471193429898
6000000000,3,0.004,0.002,0.7500648355365,-2.98184945262862e-15,5.66732836660755e-06,-5.95414387808348e-14,-3.78316374951589e-13,7.11905596705621e-13,-1.04846774371093e-14,-1.01081271826984e-08,-4.52529540773875e-15,-0.00486200391686482,7.18205349090082e-16,-0.00645964520255593
6000000000,3,0.004,0.004,1.11836292265431,1.30362820844812e-13,-1.53731352155617e-06,3.07602154805175e-13,3.45271550682075e-10,1.18819647225825e-12,-1.25542414855966e-14,-1.30060012343541e-08,-6.86736002778217e-15,-0.00724929286879547,-1.77648425824965e-15,-0.000966683800646592
6000000000,3,0.004,0.005,1.09276317806667,2.06780406160949e-13,9.43972825667048e-07,1.30232958783394e-12,3.49766746756292e-10,1.28489413304631e-12,-9.84286967840113e-15,8.1266497696988e-09,4.41150580555517e-16,-0.00708335908342362,-3.00236285242167e-15,0.00190126088252204
6000000000,3,0.004,0.007,0.693605534467497,2.9842056723031e-14,-3.8038890650891e-06,1.78999264142167e-12,-8.75849636039397e-13,7.07144515210628e-13,-4.02884767762946e-15,6.77117186067323e-09,-2.22119807702201e-15,-0.0044960221724689,-5.73827570754203e-15,0.00621280464811665
6000000000,3,0.011,0.002,0.750063732577095,-2.24325839416544e-13,-5.07258799117189e-06,-8.93363499552841e-13,5.12419366445888e-11,3.49414607608067e-13,3.34888335167402e-15,-1.16460080769441e-08,-2.07288340067182e-15,-0.00486207582198577,6.49914647268963e-16,-0.00645972839908582
6000000000,3,0.011,0.004,1.11835761164997,-3.50830668669801e-13,2.09194117641557e-06,-3.80193305990886e-13,-1.56501216584005e-09,3.51054714639684e-13,-6.92459553664949e-16,8.85353558258725e-09,-2.9120317896539e-15,-0.00724922167532311,4.6724051380131e-15,-0.000966683465460285
6000000000,3,0.011,0.005,1.09275888038093,-3.70283284596033e-13,7.77993467166492e-07,-1.86041100152103e-13,-2.55596923190928e-09,3.30339519686466e-13,-1.27807967199826e-15,6.46967640182708e-09,-8.16023715366898e-16,-0.00708330065272602,6.25192276442944e-15,0.00190125667863067
6000000000,3,0.011,0.007,0.693602960062345,-2.28626054909395e-13,6.69894837394108e-07,4.67489467736763e-13,5.34963717811057e-11,2.1634451588445e-13,-8.47542785245465e-16,-9.46796707900325e-09,-4.36313876626755e-15,-0.00449602327623617,9.83436855587303e-15,0.00621281258676134
6000000000,3,0.016,0.002,0.750064835443704,-9.99543321366533e-13,-5.66746205026737e-06,-8.23104852524296e-13,-9.89831625285308e-13,-1.6105944200239e-13,9.44163058234347e-15,1.0110174399833e-08,-6.96957265162053e-15,-0.00486200390478306,-1.45245814269533e-14,-0.00645964520435901
6000000000,3,0.016,0.004,1.1183629219469,-1.56319318926586e-12,1.53811806142274e-06,-6.64411323728095e-13,-2.59749449113576e-10,-2.08312874283005e-13,5.68872977344374e-15,1.29990145854562e-08,-7.41830156023141e-15,-0.00724929286294975,-4.6395371109794e-15,-0.000966683747254741
6000000000,3,0.016,0.005,1.09276328546433,-1.51324765282214e-12,-1.02725565806063e-06,-1.12029961844748e-12,-2.58096074802628e-10,-2.7035649542908e-13,6.42427822103347e-15,-8.75672462170922e-09,-1.00971413013703e-14,-0.00708336030877382,1.21951510986074e-15,0.00190126139520108
6000000000,3,0.016,0.007,0.693605488226099,-8.94404626283181e-13,3.60718823297411e-06,-5.92156298953958e-13,-2.1378019859734e-13,-1.94797167087092e-13,3.71605653267217e-15,-6.52797468790603e-09,-1.22176621170453e-14,-0.00449602010546159,8.35863222533646e-15,0.00621280349761436
6000000000,4,0.009,0.003,-0.0733173740219243,1.39839415408292e-13,-0.397914244053399,-2.71996013363422e-13,1,-0,3.96296379009422e-15,0.00122050153335181,1.92340789642452e-15,1.33353891868109e-09,3.16531976887106e-16,8.94817755409266e-05
6000000000,4,0.004,0.002,-0.283368198432103,1.18071976646113e-12,-0.376945469631309,-4.78360688017061e-13,0.444770436647607,1.80916674068159e-13,6.06642168451328e-15,0.00115616185201216,7.92371723206845e-15,2.03251290710545e-10,1.07452170823975e-14,0.000736629736838357
6000000000,4,0.004,0.004,-0.426492620052485,1.78117565067688e-12,-0.0663871110398226,-2.02461205999774e-13,0.669382014081574,4.7527310320935e-13,-1.21851787025553e-15,0.000203618015503516,7.47248987600825e-15,9.90625277071003e-09,8.01655283460955e-16,0.000129738473157328
6000000000,4,0.004,0.005,-0.416857073279204,1.59493047001773e-12,0.14619821646302,1.0454700486993e-12,0.654261409397322,2.98875981180345e-13,-3.01966908545186e-15,-0.000183027167315064,1.14738409205174e-14,2.57525377266761e-09,-4.46652578076146e-15,-0.00011661451514068
6000000000,4,0.004,0.007,-0.262213216583139,1.08233323817294e-12,0.440892266315536,1.06109758236598e-12,0.411564820007111,-4.69930009868412e-14,-5.75293240585919e-15,-0.000551960851290403,6.59461257469017e-15,-2.99039023468456e-10,-1.10647203161983e-14,-0.00035167303629271
6000000000,4,0.011,0.002,0.0548027925826544,-4.2060556175219e-13,-0.633406675652503,-3.83530945083288e-13,0.747368312553624,-1.31352064689604e-13,2.78936578862427e-15,0.00194281281939448,7.36372608549492e-15,3.89627119368034e-09,-4.56872488429801e-15,-0.00014243158832343
6000000000,4,0.011,0.004,0.0824661845193266,-3.37134191553183e-13,-0.111552113820569,-1.76566584614603e-14,1.12479970150903,-1.03197706421706e-13,7.88278021781288e-15,0.000342158738270017,-7.90483064644651e-15,7.18655879771306e-11,5.69218793040608e-16,-2.50909743719724e-05
6000000000,4,0.011,0.005,0.0806038976057553,-2.61808855337007e-13,0.24566229005468,7.67624731780806e-14,1.09939182260322,-1.53476926871484e-13,2.14780164315085e-15,-0.00030755459711797,-2.44708333487929e-15,-4.14206824192274e-10,3.38963340345369e-15,2.25459847007946e-05
6000000000,4,0.011,0.007,0.0507023183092156,-8.56895304936675e-15,0.740844393483775,4.13356781744696e-13,0.69157297177953,-5.7755252240636e-14,-1.79038622960441e-15,-0.000927495934600097,-4.68396956443212e-15,-4.96736322315593e-10,5.31894861002266e-15,6.80007753732756e-05
6000000000,4,0.016,0.002,0.283368198104425,-5.77376825583152e-13,-0.376945470139731,5.08776666302971e-14,0.444770436669717,9.01308328352454e-14,-3.73512794405547e-15,0.0011561618561962,6.52369934345569e-16,-2.00118859944682e-10,-5.8443161479081e-15,-0.000736629733076804
6000000000,4,0.016,0.004,0.426492618167325,-7.81944887809709e-13,-0.0663871092967133,-2.37200914525089e-13,0.669382013820911,2.61337970181166e-13,-1.12536983704705e-15,0.000203618006315133,-5.18926128267421e-15,-9.91252666711393e-09,-2.200687807519e-15,-0.000129738463807848
6000000000,4,0.016,0.005,0.416857134383954,-8.40188109124818e-13,0.146198101567228,6.98108635486831e-14,0.654261411252003,3.24930562734677e-13,1.17063272491975e-15,-0.000183027073017644,-4.29585810006804e-15,-2.55745204864992e-09,1.99243687771423e-16,0.00011661459308107
6000000000,4,0.016,0.007,0.262213098785924,-4.57479338803548e-13,0.440891769286961,4.53189832128048e-13,0.411564766087009,1.43659400093895e-13,-1.2303394601338e-16,-0.000551960439589456,-1.34081141091044e-15,1.01074472337394e-10,2.02031834921051e-15,0.000351673004842737
6000000000,5,0.009,0.003,-0.347788900255613,-5.17552738023055e-12,3.11281976517597e-07,6.86909512042762e-12,1,0,-3.84074893530729e-14,0.00397481231741128,-4.11284874591019e-14,0.00200714702615991,-2.77747146438951e-14,0.00138235787812302
6000000000,5,0.004,0.002,-1.34906855004519,-1.66151320491372e-11,-2.42632912466735e-06,5.85737074356556e-12,0.446375717158793,2.64339393780245e-13,-4.43268116703174e-14,0.00384429526220293,-1.33989093546132e-13,0.00778543158751674,-1.73546000780175e-13,0.0116185718178605
6000000000,5,0.004,0.004,-2.01154199503911,-2.49118352511662e-11,-2.20685686240932e-06,1.3014560977051e-12,0.665550045519149,5.11789444847344e-13,-1.25859533722064e-14,0.000575261269063411,-1.7945677893904e-13,0.0116084726576246,-2.99567385071378e-14,0.001738748740869
6000000000,5,0.004,0.005,-1.96549534825688,-2.43583826392e-11,4.067783763094e-06,-9.37102364041815e-13,0.650316028806924,1.31410086772232e-13,6.68138665831228e-15,-0.00113144728233564,-1.77865809968914e-13,0.0113427251783297,4.86489904094212e-14,-0.00341970969883661
6000000000,5,0.004,0.007,-1.24752250253215,-1.533418402989e-11,1.10227346492129e-06,-5.72354183461457e-12,0.412775266619767,-8.61199393355738e-14,4.51600629139459e-14,-0.00369737808940903,-1.0977477884195e-13,0.00719939597786165,1.72057733248977e-13,-0.0111745895600047
6000000000,5,0.011,0.002,0.260886537123022,2.5141497376647e-12,-1.4126475571544e-05,1.13437345549833e-11,0.750065547203672,-4.37953259688583e-13,-8.61714143412482e-14,0.00645980477148866,3.78901416236039e-14,-0.00150568180926863,2.13726416755636e-14,-0.00224651160799367
6000000000,5,0.011,0.004,0.38895506406722,4.00260707695284e-12,2.53305428430628e-06,2.17528324430261e-12,1.11836060771473,-5.53815839936512e-13,-6.26984716318291e-15,0.000966665564272557,1.87680858871875e-14,-0.00224459460049875,5.63537116640034e-15,-0.000336285795331335
6000000000,5,0.011,0.005,0.380053359415889,4.09432755453118e-12,-3.81085511820952e-07,-3.54349344663259e-12,1.09276216492635,-7.49041374214315e-13,2.69500126027346e-14,-0.00190124175060977,2.33226372900848e-14,-0.00219325496465059,-2.49244115675155e-15,0.000661155593489846
6000000000,5,0.011,0.007,0.241227640953737,2.71127333166946e-12,-7.89361924660836e-06,-1.25336041329824e-11,0.693606815404066,-4.1655555912597e-13,8.78255023188074e-14,-0.0062128554029952,1.93107047436683e-14,-0.00139205438381669,-2.01395419177447e-14,0.00216075958589617
6000000000,5,0.016,0.002,1.34906854922153,1.75837437308971e-11,-2.42748316129662e-06,7.23753431318129e-12,0.446375717181065,-1.18107073917527e-13,-5.92844125315577e-14,0.00384429526575387,1.42967060632139e-13,-0.00778543159055075,1.82052541593633e-13,-0.0116185717590872
6000000000,5,0.016,0.004,2.01154199123102,2.59637983440553e-11,-2.20522711320862e-06,1.31630984770139e-12,0.665550045248156,7.80995916006973e-15,-4.54501821863041e-15,0.000575261201454394,1.84450773889014e-13,-0.0116084726665871,2.48317771550185e-14,-0.00173874844337985
6000000000,5,0.016,0.005,1.965495250463,2.53011656265548e-11,3.86133062521181e-06,-3.04642967894249e-12,0.65031603081057,4.66376680617999e-14,1.92884581594076e-14,-0.0011314472641817,1.96687612724754e-13,-0.0113427257682153,-5.84130550761422e-14,0.00341971230333189
6000000000,5,0.016,0.007,1.24752249496421,1.59960548958464e-11,5.35595423206527e-07,-7.41326089206034e-12,0.41277520983306,-5.60091369630343e-14,5.63945371224796e-14,-0.00369737001862744,1.22229422370409e-13,-0.00719939133750908,-1.85696308193714e-13,0.01117458852737
7000000000,1,0.009,0.003,-0.0513317856638831,1.79222140472694e-15,1,0,1.33947068715826e-16,0.177377124182208,-0.00255804488913014,5.67052042388029e-18,5.31838370721224e-11,1.43814877747037e-19,-4.30225677715019e-16,0.000740283198053542
7000000000,1,0.004,0.002,-0.180080631305968,-1.85838847017253e-14,0.628209009990488,1.56245550739441e-14,-6.03770591388428e-18,0.0716066332058878,-0.00160698071036016,-3.60796102701024e-18,-1.09196017008811e-10,-1.29021769917371e-17,-3.16407800942298e-16,0.00404136325207562
7000000000,1,0.004,0.004,-0.345377942104198,-9.96436861100395e-15,0.549736327792315,-3.32124713340627e-15,2.44596678620699e-16,0.137333993496604,-0.00140625394776036,1.11198387896714e-18,-2.76795426851181e-10,-7.13902618085636e-18,1.66448397044441e-16,0.00353654653755032
7000000000,1,0.004,0.005,-0.337730601966569,-5.37088175663544e-15,1.25397467854583,1.41805905965547e-14,3.57852560157204e-16,0.134292935948981,-0.0013092742973255,-1.39243792560956e-17,-1.18735548504105e-10,-9.22063785969039e-18,2.48533899116504e-16,0.00329266072639675
7000000000,1,0.004,0.007,-0.165364169337437,1.86932900863257e-15,1.17962170428831,-2.31095033862701e-15,6.56019052058213e-16,0.0657553194239671,-0.00123164311167267,-1.13767579719977e-18,8.54103405414793e-10,-1.41082847276246e-18,-2.07868194487601e-16,0.00309742480361706
7000000000,1,0.011,0.002,0.0348212368699892,4.61487182787792e-15,1.05561409154492,-6.2208727385325e-15,-6.49964334904867e-16,0.120324546124057,-0.00270031262539362,5.72943949903104e-18,-2.98291957608042e-09,7.24819073393104e-18,-3.47351871201751e-16,-0.000781451338204742
7000000000,1,0.011,0.004,0.0667834530229162,-3.00601019992766e-15,0.92375261034439,1.52647188101922e-14,1.00933480191496e-15,0.230769986079426,-0.00236299978649501,-6.81245057710424e-18,-8.26445597931229e-11,-5.00887841697387e-20,-4.95300329428789e-16,-0.000683839821284877
7000000000,1,0.011,0.005,0.06530468689165,-1.50661832023055e-14,2.10712406597125,-1.49184122347522e-15,1.30499517690191e-15,0.225659932765692,-0.00220004630871159,3.84185843484062e-18,1.90856371655418e-10,-2.08012137155896e-18,3.59341355966254e-17,-0.000636681057941335
7000000000,1,0.011,0.007,0.0319769226073341,-4.43601706545381e-15,1.98218595541133,9.43850367917258e-15,2.56113847169209e-15,0.110492369350544,-0.00206960022457614,-1.84213962612938e-17,4.78577966440195e-10,2.19446284478088e-18,2.9035330592005e-16,-0.000598930214141078
