#frequency,mode,x,y,Ex_re,Ex_im,Ey_re,Ey_im,Ez_re,Ez_im,Hx_re,Hx_im,Hy_re,Hy_im,Hz_re,Hz_im
1e+10,1,0.009144,0.004064,-1.48236627750908e-07,3.76860204343386e-15,1,-0,-5.78827946920484e-16,-1.60174160112417e-13,-0.00166364410334155,-9.71538503268907e-20,6.43571989335569e-11,-3.57207514410624e-18,-4.08650712147224e-18,0.000282767644120351
10000000000,1,0.004572,0.002032,-6.28305786990591e-07,-3.39989941582055e-15,0.618033485706609,1.08764639560598e-14,-8.42975025297573e-16,-2.24448023711932e-14,-0.0010281878664973,-4.20819261076771e-18,-1.71095981002076e-09,7.56982886293592e-18,1.83944193276006e-18,0.000740294647036656
10000000000,1,0.004572,0.004064,5.88939054015999e-08,-4.51164667915491e-15,0.618033836864866,-3.82637460652116e-15,-6.28580093766051e-16,3.3491769888958e-14,-0.00102818806870329,-9.85313600375048e-20,-1.89236840469703e-10,5.42153211179428e-18,-3.72823523857018e-18,0.000740295488674879
10000000000,1,0.004572,0.006096,5.44062803225586e-07,5.72795380085622e-16,0.618033753160864,5.58751866646617e-15,-4.38583621725265e-16,4.13857999256968e-15,-0.00102818866019422,-1.17164201186171e-17,7.12514273690301e-10,2.00382108079214e-18,-6.87522979999017e-18,0.000740295782473906
10000000000,1,0.004572,0.008128,-1.26505532976787e-07,-2.99467974205787e-16,0.618033918363843,7.25882989797356e-15,-3.20159591372048e-16,-3.98841651493526e-15,-0.00102818943729327,-8.0690543763959e-18,-2.70282373260801e-10,-4.62052069039241e-18,-1.73656593372721e-17,0.000740296074179169
10000000000,1,0.009144,0.002032,6.1780483744731e-07,4.6232389366097e-15,1.00000018049611,8.56576562568934e-15,-1.53630344287267e-16,-2.28241007019604e-14,-0.00166364735395301,-1.48477765070107e-17,5.93895399481023e-10,2.98841532504523e-18,-1.31764247746945e-19,0.000282768107696746
10000000000,1,0.009144,0.006096,-3.11270689788536e-06,-3.2202284265348e-15,1.00000049405815,1.41225490758194e-14,8.51001883576168e-16,-9.86538195238899e-15,-0.00166365394675271,-1.29352151027547e-17,-5.08588920639023e-10,3.91168386526023e-18,-2.56315629575826e-19,0.000282768419457235
10000000000,1,0.009144,0.008128,5.93959261856896e-06,5.16332811789104e-16,1.00000168975779,4.99608163973144e-15,5.60622571381941e-16,4.76898212208576e-15,-0.0016636456786314,-1.04059582068003e-17,6.23513511310335e-09,-7.61780100956227e-21,-2.54316099398288e-18,0.00028276866444459
10000000000,1,0.013716,0.002032,-9.87526989219003e-07,-2.5500975155547e-15,0.999999811101726,4.88519471860222e-15,-1.09342245192225e-16,1.69512385800594e-14,-0.00166365055961443,-8.63908496572982e-18,3.99846223599129e-10,-2.46434229079968e-18,1.38287753714964e-18,-0.00028276794657752
10000000000,1,0.013716,0.004064,-2.32149485430324e-06,-2.28177261801399e-15,1.00000060953227,6.62813302674406e-15,3.05901181984686e-17,-7.34907492301999e-15,-0.00166365303209611,-2.30610114419315e-17,-4.19370913304689e-09,-1.02920221194744e-19,-6.13619202684465e-19,-0.00028276818387488
10000000000,1,0.013716,0.006096,2.26696114620178e-06,-9.1845747054536e-15,1.00000043312355,2.12805490920989e-14,3.22863311767915e-17,6.24125463584836e-14,-0.00166365256156406,-2.17381554142944e-17,4.06167578329426e-09,1.49031570519829e-18,4.61923038075104e-18,-0.000282768273597412
10000000000,1,0.013716,0.008128,1.04098379071391e-06,-5.51141374445005e-16,0.99999979889868,1.36198054297139e-14,-1.19654008779323e-15,5.04649576415613e-14,-0.00166365048765861,-1.63299865047115e-18,-2.93229737827202e-10,6.71860609199085e-19,1.74592151860529e-17,-0.000282767900910695
10000000000,1,0.018288,0.002032,5.76783198348441e-07,-2.61499262018019e-15,0.618033441479484,-1.11833670343231e-15,6.61526714430468e-16,-3.44051998446967e-14,-0.00102818531040122,-1.05555625347175e-17,-1.34957735576328e-12,2.27658765230552e-18,1.64921088122848e-17,-0.000740293510082031
10000000000,1,0.018288,0.004064,-1.87002320533542e-07,-4.07559083429574e-15,0.618033924975751,6.87811126409642e-15,1.04127061880207e-15,-1.44484172273339e-13,-0.00102818908759734,-1.45749534406587e-17,-4.58179341458249e-11,-9.87254731328964e-18,9.77949628790858e-18,-0.000740295506073659
10000000000,1,0.018288,0.006096,-2.37624066812044e-07,-2.82624761034601e-15,0.618034006275042,5.0457618086174e-15,5.63381423395683e-16,1.82081414448763e-14,-0.00102818930980596,-8.39442796808342e-18,-8.05624721980802e-11,-7.60353433914715e-18,1.35636867423081e-17,-0.000740295854629468
10000000000,1,0.018288,0.008128,4.7602622860796e-08,-5.5451749514248e-16,0.618034057430339,1.19253990338664e-14,4.462031700375e-16,3.82213521288842e-14,-0.00102818955039206,-1.3616060066719e-17,4.33054618954587e-10,-5.81379560192551e-18,1.33727122549505e-17,-0.00074029617996767
10000000000,2,0.009144,0.004064,-2.05206568722586e-06,-5.27924251020994e-15,1,-0,-1.89265265510407e-14,-2.55133978235817e-13,-0.000703988931055412,3.76063219384309e-17,1.0755970552485e-10,-7.57105998110255e-17,-5.27037833371793e-18,-0.00239561850339596
10000000000,2,0.004572,0.002032,-2.73576503863771e-05,2.97865558289304e-14,1.61801282475552,-3.26994869684914e-14,-7.70268371996155e-15,-9.25409886084917e-14,-0.00113906624774518,3.62828869964949e-17,-2.94031058486544e-08,2.51916386258989e-17,1.43503480517522e-18,0.000915035870344521
10000000000,2,0.004572,0.004064,2.17710998248491e-06,1.71113898259525e-14,1.6180270427918,3.06165829332413e-14,-1.41989433242718e-14,-7.65961537025176e-14,-0.00113906603089008,-8.08000662176398e-17,-3.47119733480637e-09,7.75134457760658e-17,-5.86273938266142e-17,0.000915043339554002
10000000000,2,0.004572,0.006096,2.29155765083258e-05,1.27610177261563e-14,1.61802373083042,-1.12181013138209e-14,-2.32830626313746e-14,-1.13611463965094e-13,-0.00113907861855745,2.87524356354315e-17,1.24380707420142e-08,-5.90444330775126e-17,-2.38243251419089e-17,0.000915038109270262
10000000000,2,0.004572,0.008128,-5.11450530849311e-06,9.58591325620638e-16,1.61803015888781,-2.36605842426963e-14,-1.09026193565251e-14,-7.19463302728486e-14,-0.00113908813962606,3.2777282503868e-17,-7.30079380684744e-09,-1.25963879626674e-16,-2.01798326643311e-17,0.000915022354208212
10000000000,2,0.009144,0.002032,1.03985021970756e-05,6.80817417726577e-15,1.00000941602596,1.20757937591593e-14,-1.18344583741813e-14,-1.33398289819628e-13,-0.000704018963380441,-8.98270385147579e-17,5.63330145467991e-09,3.10498697483309e-17,3.57301320887428e-17,-0.00239568251506223
10000000000,2,0.009144,0.006096,-3.24556002929454e-05,7.30761702582142e-15,1.00001958111524,-6.71155840771933e-15,-2.14170605332104e-14,-1.49819749583445e-13,-0.00070403228577504,-9.03732160937281e-18,-1.54856252699556e-09,-1.19685728416907e-17,1.82985902694752e-18,-0.00239584261259237
10000000000,2,0.009144,0.008128,9.67616595819541e-05,1.75920788411069e-15,1.00008230163907,-5.44751585077217e-15,-1.88912373495347e-14,-8.22332011461845e-14,-0.000704084452355498,2.69420495625259e-17,3.44997375419467e-08,-7.1385874424969e-19,-5.05958054621377e-18,-0.0023955200661925
10000000000,2,0.013716,0.002032,1.16317096468215e-05,3.95668629635687e-15,-0.999993929247793,7.82129088011715e-15,-1.10720040174857e-14,-7.11162457036512e-14,0.000704016535602261,-1.76907981620086e-17,-6.17039316134328e-10,-1.2981133724054e-17,-1.02652274356394e-17,-0.00239569697196332
10000000000,2,0.013716,0.004064,2.3472877029167e-05,-5.38728013510628e-15,-1.0000112348316,-4.91964255902216e-16,-1.15414541035356e-14,-1.12942525415869e-13,0.000704026551919445,-3.95859596806662e-17,1.84595837461881e-08,-5.01309471629335e-18,-2.32895939774358e-18,-0.00239575589165712
10000000000,2,0.013716,0.006096,-2.14934511005295e-05,3.84288087146705e-15,-1.00001054517218,-3.76052766054439e-14,-9.87112477346416e-15,-1.67877382968565e-13,0.000704022876377868,-9.57181507188708e-17,-1.98072094051253e-08,1.06273657623607e-17,1.55289724634001e-17,-0.00239575346723699
10000000000,2,0.013716,0.008128,-1.24278829185794e-05,-5.51743316966845e-15,-0.999994128466756,2.59070354447544e-14,-4.62732430195514e-15,-9.92251592438249e-14,0.000704017076654858,1.78434821166825e-18,-1.77294810950079e-10,3.94722572573973e-18,1.74383603918762e-17,-0.00239573739194827
10000000000,2,0.018288,0.002032,-2.43239173669174e-05,-7.6955047718851e-15,-1.61801031125924,5.1129054224615e-16,-3.27135212048011e-16,1.98292855416154e-14,0.00113901718689985,-1.10589209436525e-16,1.17034818776659e-10,5.81818660159434e-17,1.73103295935074e-17,0.00091500357092403
10000000000,2,0.018288,0.004064,7.25582128374608e-06,-7.16314021219564e-15,-1.61803079488738,-1.13077581407165e-15,-6.37807205856456e-15,1.23936929614214e-13,0.00113908459036684,-5.2610194283749e-18,7.18860309313586e-10,-6.66718312792404e-17,4.43924779075797e-18,0.000915045966048559
10000000000,2,0.018288,0.006096,9.22497465327307e-06,-4.5877523586222e-15,-1.61803411846038,4.0301101326001e-15,-4.06637935703386e-15,-6.54786566013017e-14,0.00113908833337603,-4.49461252182407e-17,1.41406472058026e-09,3.73190935756882e-17,5.68311930912179e-18,0.000915053646965057
10000000000,2,0.018288,0.008128,-1.94384252290189e-06,-2.31238836813845e-14,-1.61803668217864,1.47561532041311e-14,-4.12719230848053e-15,-7.33583222973042e-14,0.00113909235100669,1.24818412467482e-16,-7.37788714231779e-09,-1.76462518629327e-17,-8.25298753642315e-17,0.000915046353076278
10000000000,3,0.009144,0.004064,1,-0,2.13956482395527e-06,-1.63148355283181e-14,4.99440878104479e-14,9.4776277525546e-14,-2.53091781832848e-17,2.315874479668e-08,2.7341332266097e-17,-0.000555954519536762,4.07606513839804e-17,-0.000636223003951675
10000000000,3,0.004572,0.002032,0.618032811688588,9.22138966708996e-15,-1.20597863438911e-06,-3.5127826698597e-14,5.6146494466286e-14,3.46482528080285e-14,-7.98040990829134e-17,6.68699584724983e-09,5.01811286631997e-17,-0.000343601931806603,-2.081596093692e-17,-0.00166565822184707
10000000000,3,0.004572,0.004064,1.00000789203923,3.94880715243402e-15,-9.73792394760791e-06,3.09159672433921e-15,2.45034771639581e-14,5.23653413581386e-14,-7.82236089340858e-18,3.41222394603222e-09,1.00962509711889e-16,-0.000555976041717829,4.82605695079646e-17,-0.00063624298128332
10000000000,3,0.004572,0.006096,0.999995176144401,-7.95504601964032e-16,9.20211780246674e-06,-1.49022197663929e-14,2.12524340324785e-14,5.03506337134988e-14,3.38825376275777e-17,-1.08710782333843e-10,3.895721024057e-17,-0.000555958984697849,7.92377573166856e-18,0.000636222084395751
10000000000,3,0.004572,0.008128,0.618033634783843,-2.14215159136367e-15,-5.31976680420174e-07,1.63311629514801e-14,-3.08268018488296e-14,3.44889024149638e-14,7.61194105190415e-17,6.08009482331503e-10,3.45799253733088e-17,-0.000343606662659358,-3.46274077735851e-17,0.00166566574906716
10000000000,3,0.009144,0.002032,0.6180335115781,-5.64033897555497e-15,-3.09648797108139e-07,-1.37432507166943e-14,5.87234078870213e-14,5.76442234480257e-14,-2.00929237069119e-16,1.11421898039242e-11,5.225003565059e-17,-0.000343606818174846,-1.88108040039317e-17,-0.00166566470887276
10000000000,3,0.009144,0.006096,1.0000015675664,1.43392359422426e-14,-1.03046257684634e-05,1.96904012867766e-14,5.20867829255606e-14,8.8778048982035e-14,1.56179112410181e-17,-8.22914869019361e-09,2.22557411983253e-17,-0.000555966769717765,4.83672934294154e-17,0.00063622677403764
10000000000,3,0.009144,0.008128,0.618033148759641,4.4009264667344e-16,1.20986409369171e-06,3.44931334653371e-14,4.15803329810939e-14,5.84247563952182e-14,1.37996616252044e-16,-3.51632145212825e-10,1.27351723375035e-17,-0.000343605506280237,-1.35035195540757e-17,0.00166566006393757
10000000000,3,0.013716,0.002032,0.618032658605143,-8.3943152704204e-16,1.91312469946451e-06,-3.82068532912135e-14,1.06804726223643e-13,6.16795933176309e-14,-1.82148787278017e-16,-1.56978824390063e-10,-9.45971400467405e-18,-0.000343605166748668,-9.87915091402571e-18,-0.00166565960467061
10000000000,3,0.013716,0.004064,1.00000196226346,4.1125273828267e-15,-7.91909220585743e-06,-6.91982652134588e-15,1.58683457944266e-13,1.00605902078541e-13,-7.41339007238226e-17,-2.19854436028941e-08,-2.55362785875286e-17,-0.000555955012536101,-4.20480204928851e-17,-0.000636226158783671
10000000000,3,0.013716,0.006096,1.00000235765481,1.05516530901403e-14,8.39275639167041e-06,-2.55901789872919e-14,1.43026563338803e-13,1.1061520044155e-13,-2.1303561268758e-17,2.15641995794536e-08,5.14086797137182e-18,-0.000555955695072572,-6.37266297992421e-18,0.000636225982598096
10000000000,3,0.013716,0.008128,0.618032878772911,-1.19617235468505e-14,-2.2583724594687e-06,6.32326281849668e-14,7.75656419674966e-14,6.59410854772558e-14,1.41923826812453e-16,-1.8352376523763e-10,-4.5381394051972e-17,-0.000343605197774058,6.05115136143936e-17,0.0016656600324847
10000000000,3,0.018288,0.002032,0.618033150092789,-1.62654772557936e-15,2.76930037105019e-06,-9.06639810108931e-15,7.55786749441447e-14,2.92939640461402e-14,-1.81141123386822e-16,-6.77326382672761e-10,4.0222105458133e-17,-0.000343604974886562,-1.87576219786076e-17,-0.00166566245630396
10000000000,3,0.018288,0.004064,0.999998014258319,-3.26528475869341e-15,5.99788544605763e-06,-6.64839204999439e-15,1.88590766089647e-13,4.85300487958697e-14,-1.61344578274632e-18,-3.04855094116258e-09,-1.37901086796175e-16,-0.000555961347240763,2.83632632614373e-17,-0.000636221953616139
10000000000,3,0.018288,0.006096,1.00000437362706,9.91976680917177e-15,-1.57575080949231e-05,1.13627056455471e-14,1.06550426039941e-13,5.32452458958998e-14,-4.70108414027268e-17,-4.97696580496664e-09,-8.50485517798254e-17,-0.000555986231506052,-1.44045717464197e-17,0.000636246825817494
10000000000,3,0.018288,0.008128,0.618033608911271,-2.88375040751168e-15,5.88117681090712e-07,9.07101196234265e-15,6.66653801572081e-14,3.90401409695353e-14,1.49912119878502e-16,2.25433900645692e-09,-2.30995037320043e-17,-0.000343606406271033,8.00494352055815e-18,0.00166566086346825
10000000000,4,0.009144,0.004064,1,0,-0.444447962871841,-2.6636142572254e-06,1.75470881069725e-05,1.55437877948901e-05,-7.139199533813e-09,-0.000458952083295888,4.39502733616397e-09,-0.00103270225009517,7.53054572697392e-10,-0.000761762087086175
10000000000,4,0.004572,0.002032,1.61800562946134,4.15107518984984e-11,-0.719206360921583,-4.30967326494675e-06,6.70236425995495e-06,5.93717457888881e-06,-1.15503597110735e-08,-0.000742592260166046,7.11122156477067e-09,-0.00167084391424311,5.16215967975931e-09,-0.0052218492778636
10000000000,4,0.004572,0.004064,2.61801905482651,-4.42211153689658e-11,-0.27470639534774,-1.64616268830624e-06,1.08447113394387e-05,9.60660205890876e-06,-4.41194172086651e-09,-0.00028363273025588,1.15068047514735e-08,-0.00270369120835545,1.9720304227144e-09,-0.00199483277122648
10000000000,4,0.004572,0.006096,2.61798151965613,1.33999628547214e-10,0.274712043993153,1.6460425701348e-06,1.08447223434987e-05,9.6066117890608e-06,4.41125889310242e-09,0.000283585845362208,1.15065106380875e-08,-0.00270353315911122,-1.97194068013302e-09,0.0019947421158942
10000000000,4,0.004572,0.008128,1.61804117679617,1.04578763499417e-11,0.719123084019453,4.30982584839559e-06,6.70239287778327e-06,5.93720028944922e-06,1.15505899790154e-08,0.000742635043581833,7.1118355639846e-09,-0.0016709559129425,-5.16245338863594e-09,0.00522214639164911
10000000000,4,0.009144,0.002032,0.618048283254697,6.46122502074716e-12,-1.16356562271982,-6.97343964873665e-06,1.08446941957824e-05,9.60658679034895e-06,-1.86893366187037e-08,-0.00120159470004874,2.71650988923418e-09,-0.000638265628108871,1.97188491392065e-09,-0.00199468543535061
10000000000,4,0.009144,0.006096,1.00003671335169,-1.73475958032409e-11,0.444398748292454,2.66371750460752e-06,1.75470830706426e-05,1.55437833674406e-05,7.13921325691637e-09,0.00045898391721601,4.39548927517671e-09,-0.00103276869774721,-7.5297182059349e-10,0.000761678325485648
10000000000,4,0.009144,0.008128,0.617904441721688,5.82663871688574e-11,1.16359615880147,6.97335850581141e-06,1.0844737057889e-05,9.60662479752042e-06,1.8688846201218e-08,0.00120151255503632,2.71572816617661e-09,-0.00063809055527207,-1.97202144979537e-09,0.00199482371047678
10000000000,4,0.013716,0.002032,-0.61805059794399,-2.39199628428685e-11,-1.16359026657155,-6.97336007713809e-06,1.08447154773015e-05,9.60660583987976e-06,-1.86891253718029e-08,-0.00120160245461779,-2.71639067591495e-09,0.000638255725760557,-1.97186735325929e-09,0.00199466798524182
10000000000,4,0.013716,0.004064,-1.00003091119538,1.79433268564385e-11,-0.444404097066703,-2.6637179014814e-06,1.75470816696599e-05,1.55437822924481e-05,-7.13970136609882e-09,-0.000458992258446405,-4.39517141963526e-09,0.00103277647072541,-7.52664193975829e-10,0.000761367179895733
10000000000,4,0.013716,0.006096,-1.00003230499106,2.09757095572526e-11,0.444402902118477,2.66372126283467e-06,1.75470822032043e-05,1.5543782683443e-05,7.13971565008716e-09,0.000458994964061751,-4.39517622625093e-09,0.00103277240938667,7.52675035233905e-10,-0.000761378253690527
10000000000,4,0.013716,0.008128,-0.61804898408803,-2.26188059486408e-11,1.16358968181968,6.97336318469528e-06,1.08447153759884e-05,9.60660557355374e-06,1.86891340700822e-08,0.00120160392430462,-2.71640146298215e-09,0.000638250620049539,1.97188155024825e-09,-0.00199468230823765
10000000000,4,0.018288,0.002032,-1.61801284626531,-2.81905930995003e-11,-0.719211506391773,-4.30964203197173e-06,6.70234965456094e-06,5.93716191958754e-06,-1.15498805927079e-08,-0.000742610165729681,-7.11158332936324e-09,0.00167086197006744,-5.16235402676511e-09,0.00522204594622905
10000000000,4,0.018288,0.004064,-2.61804728661474,-5.41493604830588e-11,-0.274686462226734,-1.64610407230446e-06,1.08447113915901e-05,9.60660248346884e-06,-4.41178775671646e-09,-0.000283636134158103,-1.15068711987994e-08,0.00270364223229141,-1.97184967861581e-09,0.00199464987962332
10000000000,4,0.018288,0.006096,-2.61803942511941,1.46240515415753e-11,0.274706710068304,1.64610438317023e-06,1.08446980563046e-05,9.60659035377495e-06,4.41135426251159e-09,0.000283645443152931,-1.15073919930958e-08,0.00270374305658197,1.97213821976224e-09,-0.00199494199720803
10000000000,4,0.018288,0.008128,-1.61803817779089,-1.32693839647827e-11,0.71912416460341,4.30982193218568e-06,6.70239133896403e-06,5.93719869012521e-06,1.15507616662487e-08,0.000742624643482895,-7.11176068928468e-09,0.00167095665241804,5.16245518614448e-09,-0.00522214838051473
10000000000,5,0.009144,0.004064,-0.0635985720122443,1.31009973261279e-06,-0.143095916421754,-5.82267189220644e-07,1,-0,6.01284037278315e-10,0.000488485192341142,1.35293602750243e-09,-0.000217073293391352,9.97983020631417e-10,-3.7736339831282e-10
10000000000,5,0.004572,0.002032,-0.102900169616359,2.11974863599093e-06,-0.231519994397973,-9.42225480029391e-07,0.381964464389222,-1.06646998288855e-14,9.72887363885943e-10,0.000790313886812454,2.18896193191248e-09,-0.000351233290833913,6.841135208288e-09,-2.586809953334e-09
10000000000,5,0.004572,0.004064,-0.16650511308291,3.42986595016237e-06,-0.0884340451110534,-3.59890299162398e-07,0.61803481588757,-1.85728810052264e-14,3.71593297317603e-10,0.000301878501248255,3.54208799455307e-09,-0.000568333112455091,2.61342730569669e-09,-9.88203459411027e-10
10000000000,5,0.004572,0.006096,-0.166491257958264,3.42981681244491e-06,0.0884259602936696,3.59897755892223e-07,0.618035441337534,3.92881679605491e-14,-3.71532346442045e-10,-0.000301831584451348,3.54188095243608e-09,-0.000568324253813612,-2.61330858845958e-09,9.88159400026952e-10
10000000000,5,0.004572,0.008128,-0.102904430635489,2.11979531036777e-06,0.231535096752867,9.4211657417498e-07,0.381966117088426,5.32486406113772e-14,-9.7294334678901e-10,-0.000790331424813356,2.18910823955026e-09,-0.000351265660287792,-6.84152493200157e-09,2.58695649305855e-09
10000000000,5,0.009144,0.002032,-0.0393065725434051,8.09704922232482e-07,-0.374631332870843,-1.52437675900586e-06,0.618033836644991,3.2438328973583e-14,1.57423629496482e-09,0.00127878799096181,8.36187678621585e-10,-0.000134172402813956,2.61323347832069e-09,-9.88131504970457e-10
10000000000,5,0.009144,0.006096,-0.0636020207880744,1.3101478598204e-06,0.143105689873615,5.82202684954223e-07,0.999999713879583,-1.97682740917203e-14,-6.01325381477379e-10,-0.000488488101486901,1.35302345050576e-09,-0.000217098794485315,-9.97873113296976e-10,3.77322135630473e-10
