#frequency,mode,x,y,Ex_re,Ex_im,Ey_re,Ey_im,Ez_re,Ez_im,Hx_re,Hx_im,Hy_re,Hy_im,Hz_re,Hz_im
1e+10,1,0.009144,0.004064,-1.38935281288333e-07,7.3503532791984e-15,1,-0,-1.09638515637099e-15,3.94606540178627e-14,-0.00200516513086126,-9.70732173811982e-18,-1.88981714100264e-11,1.57450804320634e-17,-9.8800396720316e-18,0.000565535498493317
10000000000,1,0.004572,0.002032,5.55529900804136e-08,4.533241457852e-15,0.618034093388534,2.25425247158391e-15,-2.84685149125321e-16,1.71525424654888e-14,-0.00123926112343842,-1.26130770268954e-17,4.44521514295801e-10,1.74492590321324e-17,4.73270141928887e-18,0.00148059238682167
10000000000,1,0.004572,0.004064,-4.13972593438531e-07,2.51611898858972e-14,0.618033892045228,9.657133169177e-15,1.56137660726364e-17,-1.98242529591379e-13,-0.00123926118220207,-8.71366648139068e-18,-3.86574139078104e-10,1.52229855421619e-17,3.13244699558593e-17,0.00148059176223828
10000000000,1,0.004572,0.006096,-2.07885441936125e-07,4.32163125273647e-15,0.618033936151569,3.35170802934865e-15,-2.44952289312777e-16,-3.72223528620166e-14,-0.00123926053170136,-7.44897454956397e-18,-9.73770759653452e-11,1.33850380277704e-17,-1.86536239430537e-17,0.00148059143269181
10000000000,1,0.004572,0.008128,-1.06419526006703e-07,1.74866536625565e-16,0.618033932597258,3.76063839388634e-15,-3.12875153612896e-17,-5.60316507791973e-14,-0.00123926078588714,-6.61528320689862e-18,-3.5193436770531e-10,3.0918141772591e-18,-4.47607594830036e-17,0.00148059156453687
10000000000,1,0.009144,0.002032,1.06875961468132e-06,1.85716600522246e-15,0.999999937738354,1.18302419113374e-14,-4.42775159704661e-16,7.92723535637976e-15,-0.00200517268065358,-2.18116879185798e-17,-5.02482594273362e-11,1.28625104399142e-17,-1.32267331511915e-17,0.000565536303285647
10000000000,1,0.009144,0.006096,-5.82966193236568e-07,3.27425419815292e-15,0.99999891171289,-4.23179836697099e-16,-1.60277769038197e-15,4.22022152643584e-15,-0.00200516043159723,-4.87975747055768e-18,-3.17896585787192e-10,1.56861842787298e-17,2.64004333740442e-17,0.000565535144607286
10000000000,1,0.009144,0.008128,-1.0329667721873e-06,4.05254200582293e-15,0.999999937694971,7.78502359171562e-15,-8.29038055079235e-16,1.78408327451304e-14,-0.00200517263005739,-1.51814166042381e-17,1.80954425297667e-10,1.30778342134246e-17,-3.52840067532532e-17,0.000565535816441713
10000000000,1,0.013716,0.002032,2.82860494964482e-08,-8.72803921160932e-16,0.999999811116618,1.84138701782532e-14,-3.57281673755611e-17,-7.94832667985169e-15,-0.00200516489549964,-3.0261028129306e-17,-6.83077340375112e-10,-6.87197899479846e-18,-1.07867130169828e-17,-0.000565535616676697
10000000000,1,0.013716,0.004064,1.21436554738505e-07,-3.21784142653812e-15,0.999999981436608,9.45879771250017e-15,-2.67332716417995e-16,-3.29879744972159e-14,-0.00200516503747352,-6.95415061622077e-17,1.7328980479636e-12,-2.62877317429191e-17,1.58458278385867e-17,-0.000565535646878591
10000000000,1,0.013716,0.006096,-1.10262706079279e-07,7.92000929889292e-15,0.999999948706496,5.96407757663505e-15,-2.35474593120449e-15,-8.03727181069246e-14,-0.00200516495632576,-1.70693354476667e-17,-9.72891905427652e-11,2.28134311891346e-17,-6.10950085039652e-17,-0.00056553548764869
10000000000,1,0.013716,0.008128,-1.74616978047795e-06,3.16561357861172e-15,1.00000014128191,1.13828998408169e-14,-1.97957066723782e-15,-7.87740198257317e-14,-0.00200517565316093,-1.29202282592237e-17,-3.58143674175651e-11,1.19039679273514e-17,-3.3804455512901e-17,-0.000565536440717819
10000000000,1,0.018288,0.002032,6.02545927063017e-07,7.67940989828135e-16,0.618033569413655,1.55777211505776e-14,-7.80471988781889e-16,-3.14456221187427e-15,-0.00123925625794144,-3.48538282899917e-17,4.75053139788634e-10,-8.72313140275231e-19,3.25022783031765e-17,-0.00148058743272504
10000000000,1,0.018288,0.004064,5.4863181067898e-07,-2.57796840987615e-16,0.61803374772069,1.24126004346868e-14,-2.34042399942435e-15,-3.38293364460616e-15,-0.0012392600849456,-3.5388459375995e-17,8.58962278982779e-10,-7.50816411439992e-18,3.11875783954764e-17,-0.00148059118477322
10000000000,1,0.018288,0.006096,-3.36835781966893e-07,2.74912368055439e-15,0.618033941257193,1.10392193713497e-14,-3.50210102698024e-15,4.53221518766884e-14,-0.00123926071154335,-2.09516669769761e-17,-2.14808497439994e-10,-7.11571783002363e-18,3.0343083714745e-17,-0.0014805916389303
10000000000,1,0.018288,0.008128,9.35057599285689e-08,1.1884090797882e-14,0.618033984375726,-1.34060684802778e-15,-2.34575258233907e-15,-5.80269189696846e-14,-0.00123926076250792,-1.26753426896492e-17,3.70382914109349e-10,1.024518604883e-17,3.03077996147441e-17,-0.00148059145330769
10000000000,2,0.009144,0.004064,-1.95824030783981e-06,-8.94742897256882e-16,1,-0,-9.85444708292126e-14,-1.95739655316222e-14,-3.8903471086582e-17,0.00225116141164399,-8.69785411373058e-18,6.06522616457095e-10,4.58285546816983e-17,-0.00479127931214584
10000000000,2,0.004572,0.002032,2.30767918916111e-06,-3.7910044784162e-15,1.61803924765959,1.21483477994503e-14,-1.62006872708643e-14,-7.92054357851446e-15,-1.60045653825127e-17,0.00364249782088499,8.51980059471502e-18,-2.24364430740769e-08,-1.03590731163453e-16,0.00183009645383598
10000000000,2,0.004572,0.004064,-1.66674971383797e-05,-4.55740769676965e-14,1.61803037855045,-4.48169121867102e-15,-6.93317721312296e-13,-1.15427905361749e-14,-4.6151545004541e-17,0.0036424998857094,4.60983393904065e-17,1.76668434882644e-08,2.14808847202125e-17,0.00183011147532078
10000000000,2,0.004572,0.006096,-8.35349837547605e-06,-9.10682525084155e-15,1.61803245309439,9.47276540708946e-15,-2.37326999918435e-13,-1.2952885367768e-14,-3.38301107813973e-17,0.00364247171855982,-1.14171557704299e-18,4.36484506095961e-09,1.81974961799923e-19,0.00183011258722486
10000000000,2,0.004572,0.008128,-4.24999318632538e-06,-2.57277194615545e-15,1.61803250776102,2.19447213183561e-15,-2.42141910426431e-13,-8.54545186335272e-15,-8.76321108389289e-17,0.0036424833642792,-1.58170071083823e-17,1.65205830222069e-08,8.16426541186149e-17,0.00183011298774574
10000000000,2,0.009144,0.002032,1.27606293143994e-05,1.84944933933513e-15,0.999996208818917,3.30343233520088e-14,-7.10415482154966e-14,-1.26368668441815e-14,4.22209150022715e-17,0.0022512489303878,-8.50405461599767e-19,-2.41962140504354e-09,6.85471732375817e-17,-0.00479142763352042
10000000000,2,0.009144,0.006096,-6.98609165636495e-06,1.75512984387575e-15,0.999988618132571,3.80634580699831e-15,-1.42304996349638e-13,-1.76264017187847e-14,5.39431773458332e-18,0.00225111474966953,-2.91683473529858e-17,8.12619690178951e-09,4.11236519276732e-19,-0.00479117444249443
10000000000,2,0.009144,0.008128,-1.19214406492604e-05,-9.32484506619049e-16,0.999996091115402,-5.70306825115412e-15,-4.07569919706581e-14,-1.19551042856963e-14,-5.75720135505798e-17,0.00225124820481601,-1.9425324513342e-17,5.79550012677526e-10,1.09009121724814e-16,-0.00479141311808706
10000000000,2,0.013716,0.002032,-3.16437181665471e-07,3.78957336017845e-15,-0.999997589941797,3.93546437442208e-15,-1.32908860105305e-13,-1.13312593937193e-14,6.50545634522301e-17,-0.00225115715052466,-9.15624431461434e-18,-7.96400230462585e-09,3.10791348705372e-18,-0.00479130525260164
10000000000,2,0.013716,0.004064,-1.87424361975603e-06,-2.86637152613886e-14,-1.00000014974509,-3.21245681245431e-14,-1.9739160344095e-13,-1.75003570986048e-14,5.55747156679436e-17,-0.00225116133018628,-1.35965598009813e-17,-9.58118897495107e-10,1.63916740870378e-16,-0.00479128523228035
10000000000,2,0.013716,0.006096,1.42500003800998e-06,-5.49607202296683e-16,-0.999999317277773,-1.03635072390556e-14,-7.42256060666028e-14,-2.02016227043735e-14,6.01753309425047e-18,-0.00225115880601712,-4.49144621173742e-17,-1.72117163262954e-09,7.35365521194447e-17,-0.00479127758037004
10000000000,2,0.013716,0.008128,2.04437851703202e-05,-2.23233476837895e-15,-0.999998556248855,-2.60323770380334e-14,5.04697536088104e-15,-1.29653319784496e-14,3.10647207098877e-18,-0.00225128049345074,1.55870426914221e-18,-3.6078071712258e-09,6.42244264214633e-17,-0.0047914982605034
10000000000,2,0.018288,0.002032,-2.57500653923327e-05,-8.21007122511488e-15,-1.61801769589206,-4.42311535977193e-15,-4.98695544864139e-14,-1.33378801392987e-14,6.40546296190973e-17,-0.00364226899740912,2.26670106333934e-17,2.46923559861808e-08,1.07258716857186e-17,0.00182999852634771
10000000000,2,0.018288,0.004064,-2.297603639053e-05,-1.55801157738878e-14,-1.61802490276493,-1.81265681578503e-14,-1.11685362913049e-13,-2.04579261363012e-14,3.55188402069323e-17,-0.00364245412204298,2.91272423260551e-17,4.06846602187524e-08,-8.1164634349648e-18,0.00183011189622743
10000000000,2,0.018288,0.006096,1.34090739479479e-05,-1.84232655103159e-14,-1.6180329476324,-3.36437825144682e-14,-2.61246075020836e-13,-1.75925612559878e-14,3.61564219702242e-17,-0.00364248018004515,9.38322331284652e-18,-9.86635945357358e-09,3.48104965910921e-17,0.00183011518487791
10000000000,2,0.018288,0.008128,-3.7539936738822e-06,7.99006178019189e-14,-1.6180345299191,2.75859122228405e-14,1.06946075765431e-13,-1.17212291836348e-14,2.41225995203378e-17,-0.00364248242460126,1.27446924984864e-17,1.65253143607933e-08,5.01339744639514e-17,0.00183011756437309
10000000000,3,0.009144,0.004064,1,-0,1.45956061459488e-06,3.74468119585929e-15,-4.48878506930178e-13,8.33488880971632e-15,5.54350838862659e-18,3.70794040897517e-09,1.94171269758585e-17,-0.00287863326808415,-1.23349599129601e-16,-0.0012724548853102
10000000000,3,0.004572,0.002032,0.618034458723462,2.99197207016893e-15,1.02732904057511e-07,-1.3286368572248e-14,9.27270759697362e-14,5.07350548604346e-15,4.82725005000135e-17,1.66149626668564e-09,4.29539461053727e-17,-0.0017790940337791,3.17360172394548e-17,-0.00333132875706474
10000000000,3,0.004572,0.004064,1.00000430428636,-1.42670939077961e-14,-1.69045740783655e-05,-2.43960473704245e-14,1.50544495211186e-13,2.90263110917238e-15,-2.55560752211723e-17,-1.12708961534854e-08,6.45045672090011e-17,-0.00287873421175906,4.98409658867781e-17,-0.00127249530393813
10000000000,3,0.004572,0.006096,1.0000001711877,1.61540121901844e-15,6.8760030670545e-06,-6.92323424730677e-15,7.22577606392862e-15,1.96595968965081e-15,4.81126637687312e-17,-1.15022638132343e-08,3.73492228239057e-17,-0.0028786144923752,1.35956305407446e-17,0.00127244859022462
10000000000,3,0.004572,0.008128,0.61803472898521,4.65741532939366e-15,-1.56377993401481e-07,-1.02838957886182e-14,-2.10672687756215e-13,2.9229336388783e-15,-2.71678995374562e-18,3.2574027825312e-10,-1.46266521456582e-17,-0.00177909853935692,-2.79832854780804e-18,0.00333134299174961
10000000000,3,0.009144,0.002032,0.618033618213847,4.24502953930936e-15,-2.25545699212933e-06,-1.08053201428259e-14,-2.3306295362443e-13,5.96527745237985e-15,1.78519781929891e-17,-9.06362226295741e-10,1.61931203886178e-17,-0.00177909011374296,-1.88116664140951e-17,-0.00333132518147926
10000000000,3,0.009144,0.006096,1.0000007467241,5.54635962782262e-15,4.83013018623535e-07,1.01776559649074e-14,-3.92897178873008e-13,5.83996962833507e-15,9.11666257397682e-17,1.33482133789228e-10,3.34608818985087e-18,-0.00287864108943154,-5.19395080488336e-17,0.00127245588864728
10000000000,3,0.009144,0.008128,0.618033548609216,-1.9552890139904e-15,1.92040716155276e-06,1.21531946378437e-15,-1.68911795984104e-13,2.03320666604249e-15,3.22512513787509e-18,-8.56656163872904e-10,3.50052596505225e-18,-0.00177909039500003,-3.75194514858581e-17,0.00333132475136422
10000000000,3,0.013716,0.002032,0.618034767697123,2.47252017315733e-15,-1.38183496298317e-06,-2.85734933972287e-15,-3.25289753607748e-13,8.79639394767679e-15,-3.02310354651993e-17,-2.47469589662063e-09,5.8345485908779e-18,-0.00177909851651108,-3.99245063508875e-18,-0.0033313336369659
10000000000,3,0.013716,0.004064,1.00000075097229,1.07786831532694e-14,3.01760583162105e-07,-5.36645964199178e-15,-6.42359430573098e-13,1.45092196353276e-14,-5.43123676088606e-17,-6.39821289884081e-09,9.11127956446086e-18,-0.0028786390473361,-8.08377041237282e-18,-0.00127245607990162
10000000000,3,0.013716,0.006096,0.999999988954489,-6.18597321441763e-15,1.11369421682751e-07,1.17131097406437e-14,-6.67535819183417e-13,1.92745137433448e-14,-7.66348106790446e-18,8.19647973342901e-09,-5.21481410064194e-18,-0.00287863843302202,-1.12042596608633e-17,0.0012724564713291
10000000000,3,0.013716,0.008128,0.618034505262803,-2.55850980252393e-15,1.27275982102898e-06,2.08538774453758e-14,-2.40632891677491e-13,1.14262233982374e-14,1.27312134880518e-19,2.27481675726902e-10,2.22521008385274e-17,-0.00177909834848689,-3.31442633734208e-17,0.00333133353877506
10000000000,3,0.018288,0.002032,0.618033805454223,7.88198570186738e-15,3.31541592383178e-06,-2.30717208542152e-15,-1.89399282413324e-14,1.02053193131308e-14,-1.0374622892496e-16,-9.86290971801948e-10,1.37332955067459e-17,-0.00177909235301779,4.34824706686663e-17,-0.00333133145758949
10000000000,3,0.018288,0.004064,0.999997294884286,9.33866340697764e-15,8.50496581572922e-06,4.82775487344443e-15,-8.8178400871349e-14,1.80259229425194e-14,-3.76091614545204e-17,-1.39847018768726e-08,-2.21744108326301e-17,-0.00287860081040611,-4.24974070413635e-18,-0.00127244284486842
10000000000,3,0.018288,0.006096,1.00000074162847,9.93760871192635e-15,-1.85375810093499e-05,2.36260312424109e-14,-1.97431812931175e-13,1.58401725468364e-14,7.85245520786732e-18,-4.41817974264332e-09,-1.72882061050827e-17,-0.00287872776502832,1.59293703019337e-17,0.00127249460233855
10000000000,3,0.018288,0.008128,0.618034383794413,-5.43503110493781e-15,-2.28959712781028e-08,2.3561719419142e-14,-2.15076805983608e-13,9.52882135973668e-15,4.11983524745075e-18,1.71762558917438e-09,-3.67717639987233e-17,-0.00177909423689716,1.68615669135912e-17,0.00333132854858022
10000000000,4,0.009144,0.004064,1,0,-0.444496890297706,2.53740789536989e-06,0.000175951144658428,-9.09147708159896e-06,3.03280001662146e-09,-0.00149502092224679,-5.14154987736698e-09,-0.00336403441289195,-1.43497055516503e-09,-0.0015238022519179
10000000000,4,0.004572,0.002032,1.61804084765341,6.21103478417117e-12,-0.719201496442398,4.10562094580761e-06,6.72073475939294e-05,-3.47263474580941e-06,4.90721667818188e-09,-0.00241900904968242,-8.31922885317976e-09,-0.00544314397747436,-9.83563702913643e-09,-0.0104445120061729
10000000000,4,0.004572,0.004064,2.6180614420713,5.40940673207249e-11,-0.274723362244289,1.56811937819479e-06,0.000108743797000675,-5.61884229059205e-06,1.87406356250331e-09,-0.000923905737657569,-1.34612640667073e-08,-0.00880743562429426,-3.75733233074724e-09,-0.0039899298700878
10000000000,4,0.004572,0.006096,2.61805697890814,-7.45786955561123e-12,0.274717324926356,-1.56810087147844e-06,0.000108743921973974,-5.61884876162561e-06,-1.87430894114738e-09,0.000923905382370104,-1.3460686379672e-08,-0.00880713941405574,3.75683735304248e-09,0.00398940417869434
10000000000,4,0.004572,0.008128,1.6180417022253,6.22495533391925e-12,0.719199846099866,-4.10564374889266e-06,6.72073306141362e-05,-3.4726338985559e-06,-4.907223479735e-09,0.00241901822111905,-8.31929087461291e-09,-0.00544316831482204,9.83563118712372e-09,0.0104445059074086
10000000000,4,0.009144,0.002032,0.618054292205119,-1.36062542971292e-11,-1.1637082575069,6.64297288589655e-06,0.000108743948683748,-5.61885015897884e-06,7.93994170815942e-09,-0.00391401411674009,-3.17768134250147e-09,-0.00207911860949106,-3.75688045382275e-09,-0.00398945004336479
10000000000,4,0.009144,0.006096,1.00000548934181,-2.81725123793921e-12,0.444500018892396,-2.53741424927599e-06,0.000175951151727004,-9.09147743631557e-06,-3.0327808673382e-09,0.00149503638453581,-5.14157433550769e-09,-0.00336404868427888,1.43498178376639e-09,0.00152381432285508
10000000000,4,0.009144,0.008128,0.61805339570852,-1.43299958583302e-11,1.16370893476684,-6.64297069373664e-06,0.00010874395282524,-5.61885035711377e-06,-7.9399098222137e-09,0.00391402718375244,-3.17767602865591e-09,-0.0020791257312731,3.75685551573169e-09,0.00398942369630278
10000000000,4,0.013716,0.002032,-0.618036455146964,-8.40700897126506e-12,-1.1636990467633,6.64304449575204e-06,0.000108743762868706,-5.61884055604107e-06,7.93998677703851e-09,-0.00391402747841638,3.17772144838383e-09,0.00207912253596423,3.75685186991195e-09,0.00398941950510051
10000000000,4,0.013716,0.004064,-0.999998488865183,3.61299565394011e-12,-0.444492782905629,2.53741304864824e-06,0.000175951153967734,-9.09147754593629e-06,3.03282874319774e-09,-0.00149501763536335,5.14156760840982e-09,0.00336404393620979,1.43498351072598e-09,0.00152381622282449
10000000000,4,0.013716,0.006096,-0.99999794680047,6.35250024351328e-12,0.444493238734488,-2.53741467725997e-06,0.000175951162266648,-9.0914779600629e-06,-3.03281434780847e-09,0.00149502295778469,5.1415466988444e-09,0.00336403447517111,-1.43499563813875e-09,-0.00152382895302271
10000000000,4,0.013716,0.008128,-0.6179920191456,1.57237239085064e-11,1.16369159110271,-6.64305628530899e-06,0.000108743594468084,-5.61883185294421e-06,-7.94010628997516e-09,0.00391407227372231,3.17747712072651e-09,0.00207896136728137,-3.75696835001366e-09,-0.00398954325287857
10000000000,4,0.018288,0.002032,-1.61801317045959,1.26141786824012e-11,-0.719285789879832,4.10546092427275e-06,6.72069974404312e-05,-3.47261667421605e-06,4.90684068554396e-09,-0.00241889946124993,8.31888035203551e-09,0.00544282939077762,9.83548295719426e-09,0.0104443481514685
10000000000,4,0.018288,0.004064,-2.61798590677964,8.82338197030745e-11,-0.274740705093511,1.56805933331098e-06,0.000108744105454173,-5.61885825757959e-06,1.87421435393096e-09,-0.00092370388183225,1.34601693503832e-08,0.00880676645635878,3.75695501111566e-09,0.00398952917076638
10000000000,4,0.018288,0.006096,-2.61805323728146,-1.33590521587143e-11,0.274730323782444,-1.56809784098693e-06,0.000108743818071094,-5.61884339010394e-06,-1.87419668724878e-09,0.000923887934746555,1.34611596215507e-08,0.00880743121555168,-3.75732059108607e-09,-0.00398991724384121
10000000000,4,0.018288,0.008128,-1.61804115988942,-6.21544076047932e-12,0.719202180689777,-4.10562223797131e-06,6.72073483133327e-05,-3.47263477779857e-06,-4.90722012056336e-09,0.00241899924621029,8.31925096261644e-09,0.00544317004935388,-9.83560991155729e-09,-0.010444482862447
10000000000,5,0.009144,0.004064,-0.103580450140553,-6.6046101319331e-07,-0.233061326874512,2.93540421821138e-07,1,-0,-9.8744212201933e-10,0.00048844818503187,-2.22174788415033e-09,-0.000217097263316002,-1.00639357949082e-09,-3.63889277656771e-09
10000000000,5,0.004572,0.002032,-0.1675980836059,-1.06865287808991e-06,-0.377103100346692,4.74952047602885e-07,0.381965955665812,1.74108119404008e-14,-1.59772380413305e-09,0.00079033198769037,-3.59487794860481e-09,-0.000351271372865497,-6.89806724875561e-09,-2.4941860012368e-08
10000000000,5,0.004572,0.004064,-0.271185929880751,-1.72912748139665e-06,-0.144029526881565,1.81424038456554e-07,0.618034035088242,2.78325992011873e-14,-6.10227799779177e-10,0.000301836440074819,-5.81679536900142e-09,-0.000568395373990051,-2.63514524875931e-09,-9.52809220949579e-09
10000000000,5,0.004572,0.006096,-0.27117870077532,-1.72912455601452e-06,0.144028115113604,-1.81420030166188e-07,0.618034748110971,2.47674581223066e-14,6.10227311405606e-10,-0.00030186339864485,-5.81660002699953e-09,-0.000568362508791918,2.6347978547939e-09,9.52683659171772e-09
10000000000,5,0.004572,0.008128,-0.167598172712805,-1.06865344849897e-06,0.377105779534044,-4.7495094739271e-07,0.381965863698206,1.6533010193456e-14,1.59772970423725e-09,-0.000790333695813697,-3.59489386981919e-09,-0.000351275672438813,6.89806320672053e-09,2.49418449534565e-08
10000000000,5,0.009144,0.002032,-0.0640168452884897,-4.08200752369222e-07,-0.610157256802377,7.68499052818771e-07,0.618034903510137,2.21759588792608e-15,-2.58515521740192e-09,0.0012787702919585,-1.37313622060009e-09,-0.000134173440754671,-2.63482811519824e-09,-9.52694584013856e-09
10000000000,5,0.009144,0.006096,-0.103580708775429,-6.60464619168627e-07,0.233061703053713,-2.93542534774752e-07,1.00000003812684,1.14558265607608e-16,9.87452256393424e-10,-0.000488447680853976,-2.22175728119445e-09,-0.000217098478455623,1.00640166894303e-09,3.63892184571954e-09
