#frequency,mode,x,y,Ex_re,Ex_im,Ey_re,Ey_im,Ez_re,Ez_im,Hx_re,Hx_im,Hy_re,Hy_im,Hz_re,Hz_im
1e+10,1,0.0008,0.0003,1,0,0.374991193652932,7.77960213726874e-15,9.62300430436995e-16,-7.59461885775491e-12,-0.00149597698187341,2.30030750217636e-18,0.00399066586368676,3.05260600769114e-18,-1.49673090999096e-16,-3.95583300968574e-15
10000000000,1,0.0005,0.0002,1.57254309577075,1.82909003067679e-15,0.629237856497187,1.34976961537112e-14,3.3780768982973e-16,-6.35250879757139e-13,-0.00251075988510728,-8.0390332941213e-18,0.00627544065280396,3.82938954807294e-17,1.20165613362839e-17,2.63774764246518e-14
10000000000,1,0.0006,0.00023,1.3264253376899,2.52543775281912e-15,0.508996299278506,1.99040416275115e-14,7.51209854708716e-16,-3.82354850441481e-12,-0.0020310065855922,-8.76313760874611e-18,0.00529321227711731,1.51341089229405e-17,-1.76040390002369e-16,1.47478066818673e-14
10000000000,1,0.0012,0.00045,0.666879082016775,6.31385913495091e-15,0.250060844010686,9.12286075764575e-16,2.29210014533478e-16,-1.44617375226162e-12,-0.000997731359300215,-1.34343487387831e-17,0.00266122399652781,5.03700196593236e-17,-1.68613299864665e-17,4.1202296038593e-15
10000000000,1,0.0013,0.0005,0.61165010341988,4.02499215155477e-15,0.235291074721331,4.00625037017992e-15,9.46297690349468e-17,-6.77688445874502e-13,-0.000938976972893494,-1.00544693860461e-17,0.00244084287601291,1.07639383027778e-17,2.6718573447205e-16,3.03413807509459e-15
10000000,1,0.0008,0.0003,1,0,0.37527425531845,3.62472508488904e-15,-4.33303082518769e-19,-7.38647824563739e-09,-0.00149632238997208,-3.88985415584586e-17,0.00399158727379194,4.71777486954791e-17,1.27484819202701e-13,-4.19707129399702e-12
10000000,1,0.0005,0.0002,1.57290923755368,5.87034383542598e-14,0.628915745982306,3.05452824155983e-14,3.7642978905348e-20,-4.94815670556223e-10,-0.00251133959776918,-8.05231543313813e-17,0.00627688959757422,2.06599130777778e-16,6.74856894022891e-14,2.22897876979052e-11
10000000,1,0.0006,0.00023,1.32707288690298,5.99437910756162e-14,0.509328257045626,1.30600722694223e-14,-1.31229903929357e-20,-4.55207865895175e-09,-0.00203147552738192,-4.67734315636454e-17,0.0052944344338822,2.09938159054707e-16,-3.17406064462982e-13,1.02563574763656e-11
10000000,1,0.0012,0.00045,0.666941421650044,1.06595410988799e-14,0.249938243918986,4.56555713093399e-15,-1.37408351023324e-19,-1.44836931193249e-09,-0.000997961726809906,2.506731493631e-18,0.00266183845004666,1.49102766472733e-17,1.3146104269881e-13,5.22212489297072e-12
10000000,1,0.0013,0.0005,0.611844730690858,5.16040212454703e-15,0.235445856754597,7.7532002019757e-15,2.97783271510309e-20,-9.69581542340182e-10,-0.000939193774525355,-1.75775699470465e-17,0.00244140644544412,3.61384950915774e-17,9.20053118759872e-14,3.99367055492615e-12
100000000,1,0.0008,0.0003,1,0,0.374994115893617,-1.15891377628387e-15,1.72361719336809e-18,-8.39822552304147e-10,-0.00149598044228646,-9.80498692397037e-19,0.00399067509467916,3.10170738140926e-18,-5.36151159442897e-15,-3.61138317358228e-13
100000000,1,0.0005,0.0002,1.57254686695145,1.74337415230426e-14,0.629234711760073,1.48874981620188e-15,6.74948812284983e-19,-1.93660264917821e-10,-0.00251076569286105,-1.31210119036089e-17,0.00627545516881318,2.55255183582617e-17,1.34138560007419e-16,2.31926796563877e-12
100000000,1,0.0006,0.00023,1.32643157157462,6.67177391024788e-15,0.508999130569589,1.00320356550402e-15,7.22522249793816e-19,-4.42963893312222e-10,-0.00203101128360667,-4.6771143387728e-18,0.00529322452108919,5.09046003196019e-18,4.16866490885355e-14,1.56744646409686e-12
100000000,1,0.0012,0.00045,0.666879174716473,-2.09130329009083e-14,0.25005920707198,-5.07685321667554e-15,-1.22887600547415e-18,-2.28889266461468e-10,-0.000997733667198575,5.05676982467173e-17,0.0026612301523275,-8.43436610524188e-17,1.78596297913626e-14,5.69617135559678e-13
100000000,1,0.0013,0.0005,0.611651961107397,-4.83406200137151e-15,0.235292624292639,-8.44355551765728e-15,1.02811157180506e-18,-1.12331595432656e-10,-0.000938979144884344,5.62529833919242e-18,0.00244084852203892,-4.40141727910841e-17,8.8375729078307e-15,3.13738676116884e-13
1000000000,1,0.0008,0.0003,1,5.56086165323844e-31,0.374991223392699,-1.66122275556411e-14,4.28692616625823e-18,-8.83527563971096e-11,-0.00149597701506613,-3.30436452293173e-18,0.00399066595223161,1.99099371700418e-17,-1.8817815832771e-15,-3.75221111468198e-14
1000000000,1,0.0005,0.0002,1.57254313428321,6.43947937925922e-15,0.62923782246554,2.85878946617053e-15,2.25260735342606e-21,-1.60077280472317e-11,-0.00251075994081583,-7.48143215204091e-18,0.00627544079204287,2.89536384856989e-17,1.51499157185841e-15,3.08490008698283e-13
1000000000,1,0.0006,0.00023,1.32642539577789,4.4825610238489e-15,0.508996338783818,2.47152174263667e-15,4.32768553197632e-20,-5.3185445969095e-11,-0.00203100663065603,2.14375888649178e-18,0.00529321239456272,2.93300581733875e-17,-1.33257343074217e-15,1.5525740173418e-13
1000000000,1,0.0012,0.00045,0.666879082601322,-1.00232603332816e-16,0.250060828265626,-6.95852544458368e-16,-1.55967298141327e-18,-1.55142443809058e-11,-0.000997731381437881,-8.4824590986162e-18,0.00266122405557511,1.0791114369249e-17,1.53796318910512e-15,5.89512996553273e-14
1000000000,1,0.0013,0.0005,0.611650123108963,6.14305426577064e-16,0.235291092704355,2.03986848628034e-16,-1.12212647581508e-18,-1.00670915213735e-11,-0.000938976993727534,2.97781543875653e-18,0.00244084293017041,-1.33458934663959e-17,1.23041774009385e-15,3.93169565950354e-14
