#frequency,mode,x,y,Ex_re,Ex_im,Ey_re,Ey_im,Ez_re,Ez_im,Hx_re,Hx_im,Hy_re,Hy_im,Hz_re,Hz_im
9e+09,1,0.009144,0.004064,5.46760387909463e-06,-1.10325784943768e-14,1,0,5.91025208729879e-14,1.87634933561494e-14,-0.0018193473083221,5.51663156913608e-16,2.41354605033329e-08,-4.15851043604383e-16,1.79670549656766e-15,0.000628437384682972
9000000000,1,0.004572,0.002032,3.77429093538694e-06,-5.20678491313388e-14,0.618040525429365,2.34250078829892e-13,-8.23239284807256e-14,1.2244931232381e-13,-0.00112426794436877,2.22380335866614e-15,9.44193060462607e-08,1.06775890290429e-15,-3.86610604685678e-16,0.00164522114456786
9000000000,1,0.004572,0.004064,-3.68791007057107e-06,-5.08795349978904e-14,0.618035655094986,1.23841145101713e-13,7.77751502230614e-15,1.44163522962336e-13,-0.00112445798451634,4.79576960661179e-16,-8.41040463726391e-09,1.34921436749031e-15,-2.0599521927537e-16,0.00164508934187649
9000000000,1,0.004572,0.006096,3.68790947284444e-06,-1.96704819525225e-14,0.618035655094832,1.06883808858533e-13,4.12151692848876e-14,9.33954347072471e-14,-0.00112445798451517,-8.89349500179307e-17,8.41040672341773e-09,-6.36581543567033e-17,-3.82994813622924e-16,0.00164508934187675
9000000000,1,0.004572,0.008128,-3.77429153450981e-06,-2.81950406715118e-14,0.618040525428695,1.57156745167094e-13,8.43296879792097e-14,-6.08437863297181e-15,-0.00112426794434866,-3.29662227175014e-17,-9.44193124010397e-08,4.35378283955387e-16,-4.99650371053549e-16,0.00164522114456733
9000000000,1,0.009144,0.002032,-1.73909963150351e-06,-1.60559455365637e-15,0.999988038789191,6.23360148334355e-14,5.74030245932113e-14,7.86796625379439e-14,-0.00181922036744732,-7.43336606742226e-16,-3.4990959147859e-09,-3.18581758742981e-15,1.66844791790578e-15,0.000628482498659051
9000000000,1,0.009144,0.006096,-5.46760556480216e-06,-2.66222236580612e-14,0.999999999999753,-7.37163038510753e-14,-1.47154548019236e-14,1.07402949016723e-13,-0.00181934730831217,-2.31587510062209e-15,-2.41354651362171e-08,2.26180884137266e-16,1.69468338570398e-15,0.000628437384691669
9000000000,1,0.009144,0.008128,1.73909938544339e-06,6.75824434639375e-15,0.999988038789121,-1.03268143854553e-14,5.22762226629034e-14,1.33098774695351e-13,-0.00181922036744652,2.01298717028219e-15,3.499101968227e-09,5.194780775302e-15,1.68661918761734e-15,0.000628482498657174
9000000000,1,0.013716,0.002032,1.7390994301348e-06,-4.86883692918951e-14,0.999988038789016,-5.89939870682187e-13,-4.39540948364475e-14,1.27786406308605e-13,-0.00181922036745066,4.01614679127901e-15,3.49909768670513e-09,2.16865108762885e-16,1.15375305644981e-15,-0.000628482498655377
9000000000,1,0.013716,0.004064,-5.46760435875642e-06,-5.86400060409056e-14,1.00000000000043,-6.83637477033341e-13,1.02155064944301e-13,1.20991874932656e-13,-0.00181934730833061,-2.43215151774043e-16,-2.41354564056678e-08,2.18969843949549e-15,1.46302476831695e-15,-0.000628437384690794
9000000000,1,0.013716,0.006096,5.46760410196243e-06,-4.20065136769007e-14,0.999999999999996,-6.33884079089025e-13,5.97074501788842e-14,6.10131638113368e-15,-0.00181934730832037,3.28657191538704e-15,2.41354622098882e-08,3.11328592767081e-16,1.26930240221388e-15,-0.00062843738468836
9000000000,1,0.013716,0.008128,-1.73909917759105e-06,-2.3208209225119e-15,0.999988038789387,-5.55952856726722e-13,-9.75596815039145e-14,4.94530596211908e-14,-0.00181922036744052,1.21179774362161e-14,-3.49910165444347e-09,3.90631179259061e-16,1.0683172981853e-15,-0.000628482498657792
9000000000,1,0.018288,0.002032,-3.77429128025271e-06,-6.13774622347715e-14,0.618040525429629,-4.83714155904935e-13,-8.02906666554056e-15,-1.35328563876964e-13,-0.0011242679443755,-2.51332699374112e-15,-9.44193069353794e-08,3.39830628468448e-16,-1.76415962651393e-15,-0.00164522114457007
9000000000,1,0.018288,0.004064,3.68790983399175e-06,-1.01038692805729e-13,0.618035655095246,-5.66745909610972e-13,6.04372886625622e-14,-4.28533931526322e-14,-0.00112445798451734,1.81051959753941e-15,8.41040592236422e-09,1.05803520630693e-15,-1.74586576825036e-15,-0.00164508934187734
9000000000,1,0.018288,0.006096,-3.68790962563062e-06,-7.63936484256407e-14,0.618035655095029,-6.09822777992048e-13,4.71107077465224e-14,-4.73235875625891e-15,-0.00112445798451745,7.34372119731042e-16,-8.41040444338201e-09,-1.43029358887237e-15,-1.26923139654938e-15,-0.00164508934187692
9000000000,1,0.018288,0.008128,3.77429097211507e-06,-1.18301017997305e-14,0.618040525429029,-6.70515066903141e-13,4.20231212856253e-14,1.50301911383718e-14,-0.00112426794436877,8.57125804423685e-16,9.44193039227039e-08,3.12352931388155e-15,-7.89622118000875e-16,-0.00164522114456949
9000000000,2,0.009144,0.004064,-0.000211614672549348,-1.48176759824547e-12,1,-0,-1.08818904914025e-12,1.73255576622724e-13,-1.53701728665018e-14,0.00281440598629148,-7.49213142582658e-15,2.27512906110436e-06,3.04256257187879e-15,-0.00532300035761161
9000000000,2,0.004572,0.002032,2.96569620791987e-06,-1.5816815229632e-12,1.61812767082328,1.91004605148645e-12,-7.19631187495221e-13,-9.17937442181512e-13,-9.54805637044641e-15,0.00455138484125481,-4.73506894126349e-15,2.04700375417607e-07,-8.82035299191018e-15,0.00203790547464882
9000000000,2,0.004572,0.004064,-1.27336057028264e-05,-2.16489933229476e-12,1.61811046935579,6.60540541607918e-13,-6.61297855270726e-13,-7.88321575738479e-13,7.57840363015162e-15,0.00455111398320076,-8.25067252604634e-15,3.60282843106866e-08,-1.01697444670449e-15,0.00203306351085755
9000000000,2,0.004572,0.006096,1.27336003832264e-05,-1.90730872602574e-12,1.61811046935471,-7.99441024772134e-13,-3.92705184089162e-13,-3.79902025352586e-13,1.37192253208711e-15,0.00455111398319677,-7.67486005605174e-15,-3.60282675983541e-08,4.4550757062545e-15,0.00203306351084761
9000000000,2,0.004572,0.008128,-2.96570025325148e-06,-1.11536420142201e-12,1.61812767081937,-1.86979360358728e-12,-1.14277880081392e-13,-5.47708642136244e-13,-3.26918851750332e-15,0.00455138484118382,1.14758254477257e-14,-2.04700364581424e-07,5.67386376785383e-15,0.0020379054746309
9000000000,2,0.009144,0.002032,2.39095123057161e-05,-1.1741749729231e-12,1.00034831850748,1.76786425272652e-13,-3.50421759809429e-13,2.26370815980209e-13,-3.42046767792157e-15,0.00281777986916873,-2.12489949805457e-15,5.78669071438636e-07,1.34694340796485e-15,-0.00532144523043474
9000000000,2,0.009144,0.006096,0.000211614669777947,-1.09218295135551e-12,0.999999999998986,4.96038909447769e-14,-1.11160581183108e-12,3.20535503891156e-13,-2.16980139234566e-15,0.00281440598630033,1.47694108458886e-15,-2.27512905441737e-06,2.07539077317551e-15,-0.0053230003576215
9000000000,2,0.009144,0.008128,-2.39095132751747e-05,-4.50182494067292e-13,1.00034831850523,-5.6024304579343e-14,-2.36535941026265e-15,3.22745393986562e-13,1.56506602827864e-15,0.00281777986917729,1.00376417193519e-14,-5.78669076448273e-07,-1.98748817289301e-15,-0.00532144523043333
9000000000,2,0.013716,0.002032,2.39095128049362e-05,-1.00649839346371e-12,-1.00034831850682,-4.92544719202878e-13,-5.54663197406914e-13,-1.80784327162304e-13,1.25563386469826e-14,-0.0028177798691817,-5.61546479582127e-15,5.78669078639314e-07,-6.92316959072736e-15,-0.00532144523043635
9000000000,2,0.013716,0.004064,-0.000211614671612324,-1.32969344287387e-12,-1.000000000001,8.0085602109921e-14,-1.36808040445955e-12,-9.44000985812514e-14,-7.68635603456166e-15,-0.00281440598627327,-5.5224541991137e-15,2.27512903397967e-06,-1.15490118493935e-15,-0.00532300035761674
9000000000,2,0.013716,0.006096,0.000211614671468067,-8.52265688986016e-13,-1.00000000000119,5.67565310822625e-13,-8.57902216751491e-13,1.64965132957227e-13,-1.38221903828771e-14,-0.00281440598628178,-4.96960193946541e-15,-2.2751290451572e-06,3.12720816352403e-15,-0.00532300035762586
9000000000,2,0.013716,0.008128,-2.39095131928154e-05,-3.06648967717406e-13,-1.00034831850835,9.37291564182854e-13,-1.10738223454365e-12,5.1084988129683e-13,-1.06535117266125e-14,-0.00281777986921518,-6.26752197227273e-15,-5.78669073284355e-07,2.83136356312123e-15,-0.00532144523043748
9000000000,2,0.018288,0.002032,2.96569724590558e-06,-1.60883601077897e-12,-1.61812767082181,1.184039814458e-12,-5.43198054353051e-13,-4.74742211204521e-13,-5.91049742277961e-15,-0.0045513848412734,4.41372495017602e-15,2.0470038922633e-07,-1.31260609456007e-14,0.00203790547465373
9000000000,2,0.018288,0.004064,-1.27336043633384e-05,-2.34858252062085e-12,-1.61811046935553,9.59641514357984e-13,-1.12575264416348e-12,-5.5263034853771e-13,-3.56718855979249e-15,-0.00455111398320194,-9.79212624813813e-15,3.60282832925345e-08,-2.62528281329423e-15,0.0020330635108545
9000000000,2,0.018288,0.006096,1.27336020338276e-05,-2.04543212272347e-12,-1.61811046935532,7.58671498112584e-13,-9.89794831299029e-13,-7.51456018429928e-13,3.97268632586756e-15,-0.00455111398320032,-7.15886897295008e-16,-3.60282756246765e-08,4.94006311243828e-15,0.00203306351085124
9000000000,2,0.018288,0.008128,-2.96569768205364e-06,-1.17936067214972e-12,-1.61812767082081,6.1546129385447e-13,-6.3915267676402e-13,-4.7800359814407e-13,3.61809054187575e-15,-0.0045513848412597,1.76753791779046e-15,-2.04700381034506e-07,8.9271652374142e-15,0.00203790547464483
9000000000,3,0.009144,0.004064,1,0,4.01522904309221e-05,-2.10314158880164e-12,8.52615097676009e-14,-3.89491801636193e-13,6.873252627153e-15,1.88256448830455e-08,-5.33838819906533e-15,-0.00344731073019822,-1.25605031534643e-14,-0.00141400274882328
9000000000,3,0.004572,0.002032,0.617996850523416,-8.79218423365634e-14,0.000142600761871537,-3.69849865572229e-12,6.81862700585339e-13,4.07590398739919e-13,1.73984644449478e-14,1.83458728292325e-09,1.26343617586664e-15,-0.00213008816005924,3.23356145802826e-15,-0.00370179124850189
9000000000,3,0.004572,0.004064,1.00000145277629,7.54681284892842e-15,-8.64406701269169e-06,-3.81443275802231e-12,8.13191581319333e-13,-4.93214848781069e-14,1.06009509547532e-14,-2.58540837628511e-08,-1.45315227762587e-15,-0.00344720041474563,3.21799756316609e-15,-0.00141410550462913
9000000000,3,0.004572,0.006096,1.00000145277589,4.74112326895511e-14,8.64405899780784e-06,-3.97455259613179e-12,4.96266557626845e-13,-1.17111667506552e-13,1.48186101508208e-14,2.5854061511739e-08,-1.13438610000655e-15,-0.00344720041474888,4.93972769262234e-15,0.00141410550460966
9000000000,3,0.004572,0.008128,0.617996850525013,-3.9975151606333e-14,-0.000142600766990967,-4.24286853834614e-12,4.34649536127333e-13,1.84662706381777e-13,2.46209771256106e-14,-1.83460794178202e-09,-1.10946226086277e-14,-0.00213008816006452,7.00689556490384e-15,0.00370179124847938
9000000000,3,0.009144,0.002032,0.618043855697771,-3.85750122641098e-14,-1.85016621880092e-05,-1.65983072259129e-12,-4.55154124230147e-14,-3.68044044606023e-13,2.8364601246758e-15,-2.07094892053358e-08,-3.58218593874579e-15,-0.00213064889019477,-1.32342155884021e-14,-0.00370150016682415
9000000000,3,0.009144,0.006096,1.0000000000021,5.29631245509355e-14,-4.01522988254324e-05,-2.59708313582326e-12,-2.0990634179695e-14,-6.75941518056493e-13,1.605410180706e-14,-1.88256950174769e-08,-1.88795300100303e-15,-0.00344731073017887,-1.19531532124085e-14,0.00141400274882151
9000000000,3,0.009144,0.008128,0.61804385569694,1.58651160279953e-13,1.85016518557803e-05,-2.98664953548171e-12,-6.5302415176431e-13,-5.04331769479086e-13,5.54412840420187e-15,2.07094523179136e-08,-7.09124758310578e-15,-0.00213064889019361,-1.31398562697708e-14,0.00370150016681872
9000000000,3,0.013716,0.002032,0.618043855697939,-1.09958800686126e-13,1.85016567216027e-05,2.75687693367006e-12,-1.50924105617753e-14,6.4711934061033e-14,-2.05038244309211e-14,2.0709479049014e-08,-1.38319441060185e-15,-0.00213064889020828,-8.22205736601678e-15,-0.00370150016682175
9000000000,3,0.013716,0.004064,1.0000000000051,-1.23112495183181e-14,-4.0152296163582e-05,2.41683316333607e-12,-4.37094839298859e-13,-3.802806076231e-13,-4.28226986992017e-15,-1.88256963093836e-08,8.12769075634463e-15,-0.00344731073018886,-9.04626054616198e-15,-0.00141400274882647
9000000000,3,0.013716,0.006096,1.00000000000186,9.13891076847791e-14,4.01522913684638e-05,1.98038606378935e-12,-8.60144126059793e-13,-2.85878979289538e-13,-5.66332889952556e-15,1.8825650792803e-08,5.59806955091553e-15,-0.00344731073019475,-1.23787182559235e-14,0.00141400274883699
9000000000,3,0.013716,0.008128,0.61804385569959,-2.16382351319609e-14,-1.85016643109692e-05,1.5126561263383e-12,5.8902646748578e-15,-5.70363773479222e-13,-9.74457992828581e-16,-2.07094638854124e-08,-2.39585628846403e-15,-0.00213064889020724,-1.25769948044489e-14,0.00370150016684112
9000000000,3,0.018288,0.002032,0.61799685052872,9.6712320950861e-14,-0.000142600762448091,2.93460223807036e-12,-2.81570795437159e-13,-4.53637038209271e-15,-4.43552507882287e-15,-1.83460102082971e-09,-7.11717344716078e-15,-0.00213008816007809,3.94575680298207e-15,-0.00370179124850788
9000000000,3,0.018288,0.004064,1.00000145278088,1.63582172829517e-13,8.64406178098353e-06,3.35354560288918e-12,-5.76690186919226e-13,9.83463031055932e-15,-1.26013338599024e-14,2.58540717692849e-08,1.76603293471419e-15,-0.00344720041476697,5.2475689531543e-15,-0.00141410550462606
9000000000,3,0.018288,0.006096,1.00000145278116,9.27718194472536e-14,-8.64406496410622e-06,3.3633701341671e-12,-7.18155562570137e-13,1.49235404877639e-13,-1.66091030252097e-14,-2.58540765901401e-08,-8.04750909075013e-16,-0.00344720041476527,4.26598773568965e-15,0.00141410550463398
9000000000,3,0.018288,0.008128,0.617996850527292,1.02775002640849e-13,0.000142600763028801,3.71026920709842e-12,-3.82573209962946e-13,1.46831394785823e-14,-1.20482671057159e-14,1.834583704222e-09,-2.16796401703966e-15,-0.00213008816008161,4.47270176215102e-15,0.00370179124851773
9000000000,4,0.009144,0.004064,1,0,-0.44487080703747,2.42463044834113e-06,-2.29286834506912e-05,-8.2129094198406e-06,2.0277221704069e-09,-0.00175784271412844,-5.15581566852641e-09,-0.00395008035769292,-1.52153876816746e-09,-0.00169274987669778
9000000000,4,0.004572,0.002032,1.61856502054448,2.79255172392198e-10,-0.719318182841111,3.92369423913185e-06,-8.75792884678554e-06,-3.13703745648163e-06,3.28438515782186e-09,-0.00284432483364752,-8.34429102801821e-09,-0.00639465289206872,-1.0432908370772e-08,-0.0116068583904323
9000000000,4,0.004572,0.004064,2.61851233469236,1.57218675317134e-09,-0.274757272920921,1.49857565019238e-06,-1.41705998285508e-05,-5.07582263970324e-06,1.25513354155295e-09,-0.00108688158023577,-1.35038972956976e-08,-0.0103495410613545,-3.98605052735647e-09,-0.00443458513348853
9000000000,4,0.004572,0.006096,2.61851233469053,1.57200318849086e-09,0.27475727291622,-1.49857739856482e-06,-1.41705995219642e-05,-5.07582169749758e-06,-1.25511421368133e-09,0.00108688158023995,-1.35038938004312e-08,-0.0103495410613655,3.98607492540597e-09,0.00443458513347501
9000000000,4,0.004572,0.008128,1.61856502054707,2.78740118228712e-10,0.719318182844119,-3.92369477053426e-06,-8.75792749994574e-06,-3.13703648637621e-06,-3.28439884143784e-09,0.00284432483348136,-8.34427737874986e-09,-0.00639465289201473,1.04329309572879e-08,0.0116068583904108
9000000000,4,0.009144,0.002032,0.618402278296904,4.13242276589422e-10,-1.16382511335655,6.34537843809899e-06,-1.41705975703114e-05,-5.07581853212731e-06,5.31772180785307e-09,-0.00459944729622959,-3.18887823379876e-09,-0.0024444760904114,-3.98614687269555e-09,-0.00443469477750363
9000000000,4,0.009144,0.006096,1.00000000000155,1.43266998475828e-13,0.444870807032955,-2.4246357668397e-06,-2.29286830679745e-05,-8.2129097575081e-06,-2.02772891233228e-09,0.00175784271405045,-5.15579437716319e-09,-0.00395008035768534,1.5215273491105e-09,0.00169274987672959
9000000000,4,0.009144,0.008128,0.618402278295232,4.13915530918041e-10,1.16382511334955,-6.34538297278697e-06,-1.41705976891542e-05,-5.07581789096663e-06,-5.31769253889627e-09,0.00459944729623461,-3.18885673066351e-09,-0.00244447609042197,3.98612934587297e-09,0.00443469477748159
9000000000,4,0.013716,0.002032,-0.618402278295818,-4.0955527100752e-10,-1.16382511335191,6.34538017239773e-06,-1.41705971950203e-05,-5.07581794276685e-06,5.31770502810954e-09,-0.00459944729618632,3.1888874228098e-09,0.00244447609041646,3.98616922717742e-09,0.00443469477750637
9000000000,4,0.013716,0.004064,-1.00000000000335,6.92333049747383e-12,-0.444870807036391,2.42463405245877e-06,-2.29286825909576e-05,-8.21290893751466e-06,2.02773011035261e-09,-0.00175784271409738,5.15585989548881e-09,0.00395008035768658,1.52153742648033e-09,0.00169274987674838
9000000000,4,0.013716,0.006096,-1.00000000000064,7.33585579337642e-12,0.444870807034312,-2.4246296671571e-06,-2.29286821635925e-05,-8.21290864561357e-06,-2.02780496518221e-09,0.00175784271408773,5.15583739629532e-09,0.00395008035769506,-1.52156034898075e-09,-0.00169274987669469
9000000000,4,0.013716,0.008128,-0.618402278297369,-4.0899496496375e-10,1.1638251133551,-6.3453749019076e-06,-1.4170597121538e-05,-5.07581896362255e-06,-5.31767475417734e-09,0.00459944729620017,3.18887794650762e-09,0.00244447609041215,-3.98619132118486e-09,-0.00443469477747492
9000000000,4,0.018288,0.002032,-1.61856502054759,-2.77668100360587e-10,-0.719318182842693,3.92369159917995e-06,-8.75792860790163e-06,-3.137036369434e-06,3.28442505527443e-09,-0.00284432483363737,8.34430926520172e-09,0.00639465289204463,1.04329311374389e-08,0.011606858390424
9000000000,4,0.018288,0.004064,-2.61851233468876,-1.57032196916633e-09,-0.274757272912775,1.49857734523353e-06,-1.4170599578906e-05,-5.0758210199519e-06,1.25511674569643e-09,-0.00108688158021201,1.35038874808933e-08,0.0103495410613666,3.98607001996443e-09,0.00443458513347495
9000000000,4,0.018288,0.006096,-2.61851233468996,-1.57036789903286e-09,0.274757272922741,-1.49857225093651e-06,-1.41705985579437e-05,-5.07582142701041e-06,-1.25511987943026e-09,0.00108688158024908,1.35039091203087e-08,0.0103495410613585,-3.98605647727861e-09,-0.00443458513348615
9000000000,4,0.018288,0.008128,-1.61856502054448,-2.77570424171604e-10,0.719318182841593,-3.92368691856062e-06,-8.75792809677842e-06,-3.13703591634732e-06,-3.28440382831607e-09,0.0028443248336551,8.34429952954399e-09,0.00639465289205074,-1.04329121537889e-08,-0.0116068583904389
9000000000,5,0.009144,0.004064,-0.10944383117408,-1.95157963171844e-06,-0.246532895717491,8.68214750915485e-07,1,-0,-3.43059761137313e-09,0.000439283721795556,-7.70892248319783e-09,-0.000195455645263052,-3.30354138246251e-09,-2.54602962946162e-10
9000000000,5,0.004572,0.002032,-0.177176384555302,-3.15875977600808e-06,-0.399020320409581,1.40382809980612e-06,0.381963924811078,-1.24487743201451e-12,-5.55090497652381e-09,0.000711201839039546,-1.24797328612847e-08,-0.000316137464346197,-2.26517793293599e-08,-1.74576782585408e-09
9000000000,5,0.004572,0.004064,-0.286772215898947,-5.11023701461824e-06,-0.152394742973705,5.36218084535497e-07,0.618029459450497,-6.76150399430935e-13,-2.12112087852331e-09,0.000271775256301468,-2.01980278764521e-08,-0.000511527180439376,-8.65447563238121e-09,-6.66998857869482e-10
9000000000,5,0.004572,0.006096,-0.28677221589902,-5.11023689141006e-06,0.152394742972565,-5.36221039179516e-07,0.61802945945097,-1.07802806399138e-12,2.12113627901954e-09,-0.000271775256312368,-2.0198047415736e-08,-0.000511527180424311,8.65446702624508e-09,6.66997587872306e-10
9000000000,5,0.004572,0.008128,-0.177176384556257,-3.15875944699237e-06,0.399020320407837,-1.40383172762678e-06,0.381963924811706,-1.29224542670179e-12,5.55089815093292e-09,-0.000711201839055902,-1.24797036633392e-08,-0.000316137464330613,2.26517692834993e-08,1.74576689585826e-09
9000000000,5,0.009144,0.002032,-0.06773067917036,-1.20686131755021e-06,-0.645234680122428,2.27133362527228e-06,0.61802927624387,7.9178524610839e-13,-8.97620671808969e-09,0.00115086211966371,-4.77059999539884e-09,-0.000120741785179616,-8.65468083142337e-09,-6.67015462524354e-10
9000000000,5,0.009144,0.006096,-0.109443831174703,-1.95157965533004e-06,0.246532895716104,-8.68214663330027e-07,0.999999999999067,4.44598894797381e-13,3.43051365759654e-09,-0.000439283721736837,-7.70891220473508e-09,-0.000195455645319333,3.30354480346599e-09,2.54606051467143e-10
