#frequency,mode,x,y,Ex_re,Ex_im,Ey_re,Ey_im,Ez_re,Ez_im,Hx_re,Hx_im,Hy_re,Hy_im,Hz_re,Hz_im
9e+09,1,0.009144,0.004064,-4.86655944259112e-06,1.30712696960183e-14,1,-0,8.33793268200144e-14,5.5519143746825e-14,-0.00181936644340611,-9.31272019464913e-16,9.49095437260179e-09,1.19719647548035e-16,-2.78001640648564e-17,0.000628368127558856
9000000000,1,0.004572,0.002032,-3.7187931856444e-06,4.70565109934249e-15,0.618065579310389,4.47578000233845e-15,-4.88085974941202e-14,1.21452365910842e-13,-0.00112458890000639,2.9239177605054e-16,3.75556533681889e-08,-2.65066006760245e-16,-4.10911983961863e-17,0.00164506927195642
9000000000,1,0.004572,0.004064,2.55270483372638e-06,-1.57678131137376e-15,0.618031082586652,8.27405389375452e-15,2.93766274884596e-14,9.40539549707647e-14,-0.00112441953648049,-2.50474779166095e-16,-2.06665253267241e-08,1.36969595034281e-16,-1.08989811534953e-16,0.00164509364458141
9000000000,1,0.004572,0.006096,-2.55270485288872e-06,-5.50353443397885e-15,0.618031082586635,9.09739105643245e-15,-1.59595554871487e-14,1.23061273282646e-13,-0.00112441953647767,-1.21315419753053e-17,2.06665242605471e-08,-1.4911530808437e-17,-9.09660995227063e-17,0.00164509364458065
9000000000,1,0.004572,0.008128,3.71879315101645e-06,-6.8314354326885e-15,0.618065579310363,6.12811308802057e-15,2.49386199384081e-14,4.89427932325455e-14,-0.0011245889000038,8.80486855594008e-16,-3.7555645477143e-08,-8.61323664743934e-18,-1.72626706920789e-16,0.00164506927195872
9000000000,1,0.009144,0.002032,-1.87329191181842e-05,6.8204246681648e-15,1.00000148776621,8.65273274558217e-15,3.33263037458061e-14,5.6021245295746e-14,-0.00181938515770841,-3.86406462264403e-16,-2.93454041592657e-08,1.80595176337729e-17,1.25687769153658e-17,0.000628349761774461
9000000000,1,0.009144,0.006096,4.86655945863685e-06,2.9060244747823e-14,0.999999999999768,2.88445203366978e-14,-3.92667644644945e-14,1.14385934586913e-13,-0.00181936644340899,-5.12798805423978e-16,-9.4909596196967e-09,2.38413481682766e-16,-7.64245225013938e-17,0.000628368127557152
9000000000,1,0.009144,0.008128,1.87329191386994e-05,1.14194449044045e-14,1.0000014877662,3.57101408911333e-14,-3.68084330476742e-14,8.27983222265707e-14,-0.00181938515770771,2.84534821262332e-16,2.93454028152719e-08,5.98172521833048e-17,5.36685607726348e-18,0.00062834976177502
9000000000,1,0.013716,0.002032,1.87329191379783e-05,-8.21865261581704e-15,1.00000148776619,3.23030852297164e-15,5.2848591816424e-14,2.34819253098647e-14,-0.00181938515770559,-4.92362658745967e-16,2.93454051453895e-08,-2.45580489378864e-16,-4.34386703341521e-17,-0.0006283497617745
9000000000,1,0.013716,0.004064,4.86655945957629e-06,-3.27716375674378e-14,0.999999999999764,-1.68064709476591e-14,-4.03452083967237e-14,7.77913507532749e-14,-0.00181936644340687,-8.93353941506048e-16,-9.49095713457062e-09,-2.40149786052495e-16,-9.12054613592429e-17,-0.000628368127557801
9000000000,1,0.013716,0.006096,-4.86655942972073e-06,-3.32734541619845e-14,0.999999999999989,5.65759922218657e-14,-7.84938641786118e-14,8.45361383007367e-14,-0.00181936644339491,-1.99323062236785e-16,9.49096887205743e-09,3.17262636090903e-18,-4.68964047906899e-17,-0.000628368127555526
9000000000,1,0.013716,0.008128,-1.87329191203238e-05,-7.07831435442505e-15,1.00000148776619,3.99899929872174e-14,-9.04475527704854e-15,4.46588470746807e-14,-0.00181938515770354,5.94181955810774e-16,-2.93454066825567e-08,1.86861125893834e-17,-2.07383544957835e-17,-0.000628349761775165
9000000000,1,0.018288,0.002032,3.71879316266088e-06,-2.17819734200436e-14,0.618065579310349,-9.61572786724252e-15,1.04459401084533e-14,5.70468596666684e-14,-0.00112458890001946,-1.21842814579623e-15,-3.75556515537386e-08,5.15746188272066e-16,-8.33249308834175e-17,-0.00164506927195287
9000000000,1,0.018288,0.004064,-2.55270482047433e-06,-1.51660075420958e-15,0.618031082586625,1.71645353115101e-14,-1.83416041297675e-14,9.47456973481355e-14,-0.00112441953647978,-3.0999499604121e-17,2.06665246902076e-08,-1.14082323810197e-16,-4.50149505364447e-17,-0.00164509364458212
9000000000,1,0.018288,0.006096,2.55270486283861e-06,-1.84069859535878e-15,0.618031082586612,5.10996676518009e-14,-9.48980213713796e-15,6.18890780554395e-14,-0.00112441953647575,-6.47618541378409e-17,-2.06665236913684e-08,-3.01579849176896e-16,3.23574745283716e-17,-0.00164509364458066
9000000000,1,0.018288,0.008128,-3.71879316755069e-06,1.14251648841698e-14,0.618065579310346,2.24687518968678e-14,1.88757084854553e-14,4.68174317521313e-14,-0.00112458890002919,-1.25009667804162e-15,3.75556361790577e-08,-1.9308113990702e-16,6.63750108509414e-17,-0.00164506927195117
9000000000,2,0.009144,0.004064,1.30352264007528e-05,1.61637330740042e-13,1,0,-2.61587544737944e-14,2.40139597490459e-13,-1.93322264475694e-15,0.00280858746212457,-2.98681935427864e-16,6.90263799852029e-07,1.05101116816102e-15,-0.00532892123713979
9000000000,2,0.004572,0.002032,0.00105585203107872,1.05532916239678e-13,1.61983785844226,2.06881549227995e-13,-2.63528022079225e-13,2.13044953520667e-13,-5.48540735253917e-15,0.00454696133883789,3.08383737426986e-15,1.91019532075677e-06,9.60354508055236e-16,0.00201894385556862
9000000000,2,0.004572,0.004064,0.000267623443364435,2.06329365130469e-13,1.61956085949513,2.34529748719984e-13,-1.32267724205857e-13,-4.76675003293826e-14,1.29865604196422e-15,0.00455467007218626,2.33296161790526e-15,3.39308110458019e-07,5.41981247578293e-16,0.00203354057150334
9000000000,2,0.004572,0.006096,-0.000267623442806067,2.19895786196085e-13,1.61956085949516,1.91819531941837e-13,-1.64722474558431e-13,7.25558600731979e-14,-3.90423348236869e-15,0.00455467007219162,5.90138884574931e-17,-3.39308106494449e-07,-3.01418576124254e-16,0.0020335405715047
9000000000,2,0.004572,0.008128,-0.00105585203089649,1.41732390635796e-13,1.61983785844223,1.26692420458273e-13,-3.20069089785641e-13,2.00674447059129e-13,9.29512808260783e-16,0.00454696133881489,-1.42628234952132e-15,-1.91019531411825e-06,-1.10085684989928e-15,0.00201894385557412
9000000000,2,0.009144,0.002032,-0.000382800484158439,1.02553814044295e-13,0.998956407254366,-6.22776154903964e-14,6.30125321711472e-14,1.90265094337043e-13,-1.29326671578701e-15,0.00280191561144559,6.17426194543597e-16,9.45861518434745e-07,1.74412386023859e-15,-0.00533181495927925
9000000000,2,0.009144,0.006096,-1.30352261167346e-05,1.85401737102564e-13,0.999999999999943,1.12941021409856e-13,-1.37848092998126e-14,2.06018814174614e-13,-4.01485623497138e-15,0.00280858746214086,2.69724560463058e-15,-6.90263790984637e-07,4.54955745596877e-16,-0.00532892123713617
9000000000,2,0.009144,0.008128,0.000382800484294138,1.23271805115304e-13,0.998956407254566,2.4173151789752e-13,3.21925923205809e-13,2.12076301276792e-13,-1.49661769732099e-15,0.00280191561145195,-3.42897812207892e-16,-9.45861516811437e-07,-9.40765924507208e-16,-0.00533181495928111
9000000000,2,0.013716,0.002032,-0.000382800484228999,8.32515943983985e-14,-0.998956407254267,-2.83925641348547e-13,-1.27820138640049e-13,3.5812789141622e-13,-5.13031624060263e-15,-0.00280191561145426,6.29072725297498e-16,9.45861522708729e-07,4.71605685280934e-16,-0.00533181495928282
9000000000,2,0.013716,0.004064,1.30352261848046e-05,1.63130021183045e-13,-0.999999999999705,-1.04894830956694e-13,-8.86484514916822e-14,2.64827075158023e-13,3.78903491828868e-15,-0.00280858746214362,-8.32630890577994e-16,6.90263795422363e-07,5.93676889116576e-16,-0.00532892123713808
9000000000,2,0.013716,0.006096,-1.30352263188039e-05,1.63455364135136e-13,-0.999999999999811,-3.53451122560497e-14,-3.00783120764965e-13,1.91642547084537e-13,2.44972994962121e-15,-0.00280858746218299,2.1443173057277e-15,-6.90263817960634e-07,-1.8457537517753e-16,-0.00532892123713732
9000000000,2,0.013716,0.008128,0.000382800484191708,9.13011527732443e-14,-0.998956407254173,1.49045668740094e-13,3.67898728769083e-13,-5.35414864770106e-14,1.5453509926395e-15,-0.00280191561144475,1.1643088404152e-16,-9.45861519663473e-07,2.33758348317553e-16,-0.00533181495928238
9000000000,2,0.018288,0.002032,0.00105585203098534,9.22386979844049e-14,-1.61983785844198,-8.75582257346594e-14,-4.11861361246806e-14,1.92682006950314e-13,2.243098413667e-15,-0.00454696133880233,-3.21521618476186e-15,1.91019532796814e-06,-1.08079428230189e-16,0.00201894385557962
9000000000,2,0.018288,0.004064,0.000267623443000975,1.37026419960578e-13,-1.61956085949491,-6.75343810372042e-14,-2.52625291724757e-13,1.96774383120547e-13,7.70493270006506e-16,-0.00455467007218731,2.58713990928619e-15,3.39308116500048e-07,-1.06980097141567e-16,0.00203354057150239
9000000000,2,0.018288,0.006096,-0.000267623443180834,1.55322025254486e-13,-1.61956085949496,-8.06992792215586e-14,2.81018406495775e-13,-1.83666635235053e-13,2.72478522452756e-15,-0.00455467007218923,1.47246006651387e-15,-3.39308118052896e-07,-1.27119480806623e-16,0.00203354057150216
9000000000,2,0.018288,0.008128,-0.0010558520309596,1.16006614099118e-13,-1.6198378584422,-7.65438519338353e-14,1.95793924776466e-13,7.84598940159254e-14,-3.68430093175432e-16,-0.0045469613387935,-1.33959497948635e-15,-1.91019529909023e-06,-4.26411292020771e-16,0.00201894385558272
9000000000,3,0.009144,0.004064,1,0,7.27928996064853e-06,7.48728945296527e-13,6.58145312159489e-13,-1.99089188752432e-13,9.03535289064645e-15,-2.48451241070875e-08,2.67871872936444e-15,-0.00344735186827643,1.96399827842508e-15,-0.00141383622277392
9000000000,3,0.004572,0.002032,0.61803706684909,1.74602596960137e-13,1.50721147816295e-06,7.01795870431091e-13,-7.42064197765531e-13,-1.24065336372842e-14,-9.67514028856528e-15,-2.17595277665204e-07,1.51981291274747e-15,-0.00213069953074149,-1.13849681418488e-15,-0.00370144168972754
9000000000,3,0.004572,0.004064,1.00000844249926,2.36690061215303e-13,-6.32446395463489e-05,6.59177971651704e-13,-3.93414843809219e-13,-1.35763455517264e-13,7.63084612733695e-16,-1.34594223390554e-07,-6.34223817315469e-16,-0.00344740078348894,-1.26528013720672e-15,-0.0014138004210752
9000000000,3,0.004572,0.006096,1.00000844249928,2.47477644431048e-13,6.32446387585281e-05,6.17657386588245e-13,-5.38735112748331e-13,-2.1821914837582e-13,-5.59369338365839e-15,1.34594222699247e-07,4.38490423411704e-15,-0.00344740078348722,-1.55681217712831e-15,0.00141380042107062
9000000000,3,0.004572,0.008128,0.618037066849107,1.77045614328705e-13,-1.507212299063e-06,6.5500956381291e-13,-2.08611090155088e-13,-2.25787479496723e-13,4.14163082215442e-15,2.17595280565308e-07,1.73437837345782e-15,-0.002130699530743,-1.97650447764961e-15,0.00370144168972377
9000000000,3,0.009144,0.002032,0.618035675612864,-1.35762618460453e-15,-1.58348235484496e-06,9.57015764348127e-13,-4.00503041700078e-13,-2.41050634468715e-13,-5.04192531340769e-16,8.34460264254625e-09,1.07246498454667e-16,-0.00213056327426088,1.33633997335809e-15,-0.00370148934596213
9000000000,3,0.009144,0.006096,1.00000000000003,4.62997770715212e-14,-7.27929030798166e-06,5.39337511872462e-13,-7.66057587583984e-13,-2.09665346619915e-13,-7.29774025164226e-15,2.48450839391138e-08,-2.62598110792166e-15,-0.00344735186826764,1.85703387532625e-15,0.00141383622277146
9000000000,3,0.009144,0.008128,0.618035675612859,2.89607676899443e-14,1.58348188559011e-06,4.10350788336681e-13,1.43631963422219e-13,3.6127354688557e-13,-8.30167120858717e-15,-8.34459659797544e-09,-1.61702870666882e-15,-0.0021305632742563,2.40008346811997e-15,0.00370148934596516
9000000000,3,0.013716,0.002032,0.61803567561308,-1.56466290577243e-13,1.58348363798217e-06,-4.48472644454266e-15,-1.67443405620066e-13,-4.21729178252879e-13,6.28049326869661e-15,-8.34460074937848e-09,-2.04817586929041e-15,-0.00213056327425542,2.73325640681475e-15,-0.00370148934596547
9000000000,3,0.013716,0.004064,1.00000000000037,-2.68020154449707e-13,-7.27928926919517e-06,-2.56096983902465e-13,-4.92439376061578e-13,-3.2725596530769e-13,8.18612063700825e-15,2.4845114331688e-08,-3.35499193134694e-16,-0.00344735186827808,3.04027421899202e-15,-0.00141383622277659
9000000000,3,0.013716,0.006096,1.00000000000039,-2.61322591409571e-13,7.27929012670556e-06,-3.2174822795619e-13,-5.55824910314961e-13,-5.34825169150789e-13,-5.39540525754264e-15,-2.48451119655972e-08,-1.81380256327897e-16,-0.00344735186827257,3.84369661581581e-15,0.00141383622277671
9000000000,3,0.013716,0.008128,0.618035675613085,-1.31656421641376e-13,-1.58348277793527e-06,-6.22941468695848e-13,-9.07750471397732e-14,-5.31093700576568e-13,-3.63619181932671e-15,8.34459097216247e-09,-2.23323552296988e-15,-0.00213056327425663,3.8903692292012e-15,0.00370148934596842
9000000000,3,0.018288,0.002032,0.618037066849656,-3.42605244774039e-13,-1.50721066284322e-06,-6.84713698448533e-13,-9.25695031095841e-13,-6.16059908787998e-13,-4.10868647980716e-15,2.17595282865757e-07,1.5874687715802e-15,-0.0021306995307443,-1.96162665436112e-15,-0.00370144168972507
9000000000,3,0.018288,0.004064,1.00000844250016,-5.18088130182472e-13,6.32446400489297e-05,-7.7483327904472e-13,-5.23287430534349e-13,-3.3436937486407e-13,5.07495781441676e-15,1.34594230847928e-07,2.85162034686994e-15,-0.00344740078349236,-1.20858188400544e-15,-0.00141380042107589
9000000000,3,0.018288,0.006096,1.00000844250013,-5.07510573009241e-13,-6.32446388903499e-05,-9.01452773750765e-13,-2.93939590149497e-13,-6.80522178357541e-13,2.23903224394893e-15,-1.34594224013907e-07,6.00900193870613e-16,-0.00344740078349695,-1.80285408656378e-16,0.0014138004210759
9000000000,3,0.018288,0.008128,0.618037066849659,-3.02539788425609e-13,1.50721166620308e-06,-9.82577015655333e-13,-3.88726404477769e-13,-2.35285951036205e-13,9.89076371189947e-15,-2.17595271768431e-07,-1.13253866076162e-15,-0.00213069953073927,7.02240615179567e-16,0.003701441689726
9000000000,4,0.009144,0.004064,1,0,-0.443160567876247,-8.03979126613895e-08,-6.00331622827822e-07,2.72206971832868e-07,-6.73151056956407e-11,-0.0017601986270375,1.70923762985916e-10,-0.00395162110924813,5.05065020505113e-11,-0.00169548062048534
9000000000,4,0.004572,0.002032,1.61852379000944,-1.55407241758277e-11,-0.717050698121364,-1.30020835233149e-07,-2.29337795833487e-07,1.03988286980414e-07,-1.08941922845487e-10,-0.00284530635983487,2.76671914285624e-10,-0.00639698102350071,3.45983387639697e-10,-0.0116146207981304
9000000000,4,0.004572,0.004064,2.61955013907173,-3.66352644326459e-11,-0.27500591156183,-4.95948866832986e-08,-3.7102577023263e-07,1.68233063884737e-07,-4.15105793232381e-11,-0.00108505516394229,4.47696986002091e-10,-0.0103544295479498,1.32144065856312e-10,-0.00443608768260054
9000000000,4,0.004572,0.006096,2.61955013907178,-3.66144367939459e-11,0.275005911562347,4.95959414035899e-08,-3.71025741948559e-07,1.68232967899883e-07,4.15080249815168e-11,0.00108505516394354,4.47696747623499e-10,-0.0103544295479606,-1.3214599713434e-10,0.00443608768259279
9000000000,4,0.004572,0.008128,1.61852379000941,-1.54247175951289e-11,0.71705069812165,1.300222000716e-07,-2.29337627808733e-07,1.03987757684907e-07,1.08927006067978e-10,0.00284530635978578,2.7666886026822e-10,-0.00639698102351522,-3.4598512542642e-10,0.0116146207981136
9000000000,4,0.009144,0.002032,0.617563463641179,3.40772204815846e-12,-1.16403770960089,-2.10320864120614e-07,-3.71014083458476e-07,1.68227623015359e-07,-1.76223292963647e-10,-0.00460139261374205,1.05499161186712e-10,-0.0024402972411222,1.32114411913425e-10,-0.00443507011822258
9000000000,4,0.009144,0.006096,0.999999999999904,9.86136791170477e-15,0.443160567876945,8.03990305529445e-08,-6.00332390381254e-07,2.72206954842565e-07,6.73110179555693e-11,0.00176019862710233,1.7092262886246e-10,-0.00395162110926319,-5.05045532025959e-11,0.0016954806204007
9000000000,4,0.009144,0.008128,0.617563463641258,3.357347698901e-12,1.16403770960175,2.10321932895306e-07,-3.71013395333412e-07,1.68228202998803e-07,1.76210084762298e-10,0.00460139261373332,1.054976909493e-10,-0.00244029724114852,-1.32112519909496e-10,0.00443507011821817
9000000000,4,0.013716,0.002032,-0.617563463641898,-3.89001402053404e-12,-1.16403770960149,-2.10321427677838e-07,-3.71013731651358e-07,1.68227987313638e-07,-1.76226940065068e-10,-0.00460139261374392,-1.05499940362221e-10,0.00244029724112381,-1.32114400021875e-10,0.00443507011822273
9000000000,4,0.013716,0.004064,-1.00000000000093,-8.4703072870873e-13,-0.443160567876671,-8.03986896799113e-08,-6.0033184388263e-07,2.72207053776452e-07,-6.72963138708605e-11,-0.00176019862705817,-1.70932453022799e-10,0.00395162110927063,-5.05048103580534e-11,0.00169548062042179
9000000000,4,0.013716,0.006096,-1.00000000000106,-8.22983333763249e-13,0.443160567876269,8.03983840735649e-08,-6.00332310987917e-07,2.72207061675774e-07,6.72968616981648e-11,0.00176019862713724,-1.70931357906484e-10,0.00395162110928741,5.05088459530393e-11,-0.00169548062045261
9000000000,4,0.013716,0.008128,-0.617563463641836,-3.89147908952962e-12,1.16403770960076,2.10321378560652e-07,-3.71013396154662e-07,1.68227531886694e-07,1.76223957360158e-10,0.00460139261373105,-1.05502022445104e-10,0.00244029724114378,1.32119258725489e-10,-0.00443507011821437
9000000000,4,0.018288,0.002032,-1.61852379000975,1.53320000226409e-11,-0.717050698121514,-1.30021936844647e-07,-2.29337425117625e-07,1.03987948267132e-07,-1.08924748847384e-10,-0.00284530635983818,-2.76675790027744e-10,0.00639698102350018,-3.45984884250565e-10,0.0116146207981633
9000000000,4,0.018288,0.004064,-2.61955013907243,3.62368077942179e-11,-0.275005911562716,-4.95960198611007e-08,-3.71025620236368e-07,1.68233519019754e-07,-4.15144219547855e-11,-0.00108505516394408,-4.47693473437313e-10,0.0103544295479573,-1.32145464192687e-10,0.00443608768260006
9000000000,4,0.018288,0.006096,-2.61955013907236,3.6280672223705e-11,0.275005911561174,4.95947214480051e-08,-3.71024971474638e-07,1.68233061415066e-07,4.15226600713196e-11,0.00108505516394469,-4.47694212565916e-10,0.0103544295479656,1.32146091935997e-10,-0.00443608768260505
9000000000,4,0.018288,0.008128,-1.61852379000981,1.53144741873838e-11,0.717050698120411,1.30020698233379e-07,-2.29337294279014e-07,1.03987856416709e-07,1.0892886930823e-10,0.00284530635974653,-2.76671046843588e-10,0.00639698102348517,3.45985469924071e-10,-0.0116146207981656
9000000000,5,0.009144,0.004064,-0.109432453843161,-7.48434522584304e-09,-0.24686135644895,3.31671289719806e-09,1,-0,-1.31732295780734e-11,0.000439876750784582,-2.95752267017498e-11,-0.000195489758036548,-1.26898748411073e-11,-3.43465419382753e-11
9000000000,5,0.004572,0.002032,-0.177178282859626,-1.21136413960374e-08,-0.39918716292734,5.36654370561754e-09,0.382017627535076,-8.12579059673057e-14,-2.12938449457259e-11,0.000711540431770661,-4.78777317318613e-11,-0.000316348415392153,-8.69280602212734e-11,-2.35288110149435e-10
9000000000,5,0.004572,0.004064,-0.286802018037009,-1.96056898229508e-08,-0.152102683928872,2.05812380149956e-09,0.618033798970172,7.21582789441379e-15,-8.12106685278922e-12,0.000271248119830141,-7.74965354469384e-11,-0.000511557050126816,-3.32011729315012e-11,-8.98660203549753e-11
9000000000,5,0.004572,0.006096,-0.28680201803702,-1.96056868703269e-08,0.152102683928565,-2.05833322347685e-09,0.618033798970193,3.26799676916532e-14,8.12182572467815e-12,-0.000271248119831267,-7.74972496595558e-11,-0.000511557050127372,3.32013724282861e-11,8.98657349957358e-11
9000000000,5,0.004572,0.008128,-0.177178282859796,-1.21136427604184e-08,0.399187162927092,-5.36678424863534e-09,0.382017627535099,-3.47534074717142e-14,2.12962326211261e-11,-0.000711540431768991,-4.78772349877299e-11,-0.000316348415395311,8.69281768687645e-11,2.35287811132466e-10
9000000000,5,0.009144,0.002032,-0.0675691617096847,-4.62206410380274e-09,-0.645267508281315,8.71200291836237e-09,0.618014602703847,4.36940196680892e-14,-3.4438121779231e-11,0.00115092894599874,-1.82642250373144e-11,-0.000120520901299158,-3.319388108394e-11,-8.98450125685498e-11
9000000000,5,0.009144,0.006096,-0.109432453843093,-7.48433840337432e-09,0.246861356448436,-3.31682138595117e-09,1.00000000000009,6.18986305402122e-14,1.31736918054372e-11,-0.000439876750790116,-2.95746393252688e-11,-0.000195489758030458,1.26892371633556e-11,3.4347226809171e-11
