#frequency,mode,x,y,Ex_re,Ex_im,Ey_re,Ey_im,Ez_re,Ez_im,Hx_re,Hx_im,Hy_re,Hy_im,Hz_re,Hz_im
9e+09,1,0.009144,0.004064,-4.86655944259112e-06,1.30712696960183e-14,1,-0,8.33793268200144e-14,5.5519143746825e-14,-0.00181936644340611,-9.31272019464913e-16,9.49095437260179e-09,1.19719647548035e-16,-2.78001640648564e-17,0.000628368127558856
9000000000,1,0.004572,0.002032,-3.7187931856444e-06,4.70565109934249e-15,0.618065579310389,4.47578000233845e-15,-4.88085974941202e-14,1.21452365910842e-13,-0.00112458890000639,2.9239177605054e-16,3.75556533681889e-08,-2.65066006760245e-16,-4.10911983961863e-17,0.00164506927195642
9000000000,1,0.004572,0.004064,2.55270483372638e-06,-1.57678131137376e-15,0.618031082586652,8.27405389375452e-15,2.93766274884596e-14,9.40539549707647e-14,-0.00112441953648049,-2.50474779166095e-16,-2.06665253267241e-08,1.36969595034281e-16,-1.08989811534953e-16,0.00164509364458141
9000000000,1,0.004572,0.006096,-2.55270485288872e-06,-5.50353443397885e-15,0.618031082586635,9.09739105643245e-15,-1.59595554871487e-14,1.23061273282646e-13,-0.00112441953647767,-1.21315419753053e-17,2.06665242605471e-08,-1.4911530808437e-17,-9.09660995227063e-17,0.00164509364458065
9000000000,1,0.004572,0.008128,3.71879315101645e-06,-6.8314354326885e-15,0.618065579310363,6.12811308802057e-15,2.49386199384081e-14,4.89427932325455e-14,-0.0011245889000038,8.80486855594008e-16,-3.7555645477143e-08,-8.61323664743934e-18,-1.72626706920789e-16,0.00164506927195872
9000000000,1,0.009144,0.002032,-1.87329191181842e-05,6.8204246681648e-15,1.00000148776621,8.65273274558217e-15,3.33263037458061e-14,5.6021245295746e-14,-0.00181938515770841,-3.86406462264403e-16,-2.93454041592657e-08,1.80595176337729e-17,1.25687769153658e-17,0.000628349761774461
9000000000,1,0.009144,0.006096,4.86655945863685e-06,2.9060244747823e-14,0.999999999999768,2.88445203366978e-14,-3.92667644644945e-14,1.14385934586913e-13,-0.00181936644340899,-5.12798805423978e-16,-9.4909596196967e-09,2.38413481682766e-16,-7.64245225013938e-17,0.000628368127557152
9000000000,1,0.009144,0.008128,1.87329191386994e-05,1.14194449044045e-14,1.0000014877662,3.57101408911333e-14,-3.68084330476742e-14,8.27983222265707e-14,-0.00181938515770771,2.84534821262332e-16,2.93454028152719e-08,5.98172521833048e-17,5.36685607726348e-18,0.00062834976177502
9000000000,1,0.013716,0.002032,1.87329191379783e-05,-8.21865261581704e-15,1.00000148776619,3.23030852297164e-15,5.2848591816424e-14,2.34819253098647e-14,-0.00181938515770559,-4.92362658745967e-16,2.93454051453895e-08,-2.45580489378864e-16,-4.34386703341521e-17,-0.0006283497617745
9000000000,1,0.013716,0.004064,4.86655945957629e-06,-3.27716375674378e-14,0.999999999999764,-1.68064709476591e-14,-4.03452083967237e-14,7.77913507532749e-14,-0.00181936644340687,-8.93353941506048e-16,-9.49095713457062e-09,-2.40149786052495e-16,-9.12054613592429e-17,-0.000628368127557801
9000000000,1,0.013716,0.006096,-4.86655942972073e-06,-3.32734541619845e-14,0.999999999999989,5.65759922218657e-14,-7.84938641786118e-14,8.45361383007367e-14,-0.00181936644339491,-1.99323062236785e-16,9.49096887205743e-09,3.17262636090903e-18,-4.68964047906899e-17,-0.000628368127555526
9000000000,1,0.013716,0.008128,-1.87329191203238e-05,-7.07831435442505e-15,1.00000148776619,3.99899929872174e-14,-9.04475527704854e-15,4.46588470746807e-14,-0.00181938515770354,5.94181955810774e-16,-2.93454066825567e-08,1.86861125893834e-17,-2.07383544957835e-17,-0.000628349761775165
9000000000,1,0.018288,0.002032,3.71879316266088e-06,-2.17819734200436e-14,0.618065579310349,-9.61572786724252e-15,1.04459401084533e-14,5.70468596666684e-14,-0.00112458890001946,-1.21842814579623e-15,-3.75556515537386e-08,5.15746188272066e-16,-8.33249308834175e-17,-0.00164506927195287
9000000000,1,0.018288,0.004064,-2.55270482047433e-06,-1.51660075420958e-15,0.618031082586625,1.71645353115101e-14,-1.83416041297675e-14,9.47456973481355e-14,-0.00112441953647978,-3.0999499604121e-17,2.06665246902076e-08,-1.14082323810197e-16,-4.50149505364447e-17,-0.00164509364458212
9000000000,1,0.018288,0.006096,2.55270486283861e-06,-1.84069859535878e-15,0.618031082586612,5.10996676518009e-14,-9.48980213713796e-15,6.18890780554395e-14,-0.00112441953647575,-6.47618541378409e-17,-2.06665236913684e-08,-3.01579849176896e-16,3.23574745283716e-17,-0.00164509364458066
9000000000,1,0.018288,0.008128,-3.71879316755069e-06,1.14251648841698e-14,0.618065579310346,2.24687518968678e-14,1.88757084854553e-14,4.68174317521313e-14,-0.00112458890002919,-1.25009667804162e-15,3.75556361790577e-08,-1.9308113990702e-16,6.63750108509414e-17,-0.00164506927195117
9000000000,2,0.009144,0.004064,1.30352262946593e-05,2.55761090488868e-15,1,0,-2.3280751291506e-13,5.03195146173523e-13,-5.47094567207471e-15,0.00280858746212836,-2.87474717749969e-15,6.90263804312666e-07,1.31470739910811e-15,-0.00532892123713934
9000000000,2,0.004572,0.002032,0.00105585203088646,-4.30624031018091e-14,1.61983785844222,2.54065532520704e-13,-5.15263426808373e-15,1.44033002945501e-13,-8.56822263513008e-15,0.00454696133883783,2.08985536464572e-15,1.91019532053654e-06,6.02601441923013e-17,0.00201894385557014
9000000000,2,0.004572,0.004064,0.000267623443052413,-4.82496024801614e-14,1.61956085949504,3.34515141030246e-13,-1.52324303586127e-14,1.65518712320962e-13,9.246840508176e-16,0.00455467007218578,1.95688643975039e-15,3.3930811111557e-07,2.22998899265478e-16,0.00203354057150383
9000000000,2,0.004572,0.006096,-0.000267623443115839,-4.07617423673598e-14,1.619560859495,3.52530550886838e-13,-1.18458593435069e-13,1.60211088195091e-13,-2.99493833646029e-15,0.00455467007219063,-6.25014401003509e-16,-3.39308106516453e-07,8.97502011047774e-17,0.00203354057150418
9000000000,2,0.004572,0.008128,-0.00105585203108525,-2.24347081202336e-14,1.61983785844201,3.28526243362682e-13,6.5946559293077e-15,1.39905105860075e-13,2.95985705668001e-16,0.00454696133881161,-9.08515285819579e-16,-1.91019531428707e-06,-1.87545940355736e-16,0.002018943855573
9000000000,2,0.009144,0.002032,-0.000382800484223929,-9.11839284674855e-15,0.998956407254436,-4.59223199897575e-14,-1.19804273780751e-13,3.24541991741418e-13,2.08268465319335e-15,0.00280191561144566,3.26935630507868e-16,9.45861518833825e-07,1.34233221941733e-15,-0.00533181495927854
9000000000,2,0.009144,0.006096,-1.30352262245466e-05,1.88314580229234e-14,0.999999999999877,1.21473360942553e-13,1.0063284796692e-13,3.65483013940707e-13,-6.19214191383797e-15,0.00280858746213458,-1.69737742918217e-15,-6.90263786812377e-07,1.22174628139248e-15,-0.00532892123713588
9000000000,2,0.009144,0.008128,0.000382800484221774,1.8973346734738e-14,0.998956407254432,2.47309394765445e-13,3.77325454013897e-13,-1.57949662698981e-14,-2.25116717535044e-15,0.00280191561145134,-5.36222549358717e-16,-9.45861516611254e-07,5.46567761528763e-16,-0.00533181495928112
9000000000,2,0.013716,0.002032,-0.000382800484255274,1.49620578687387e-14,-0.998956407254287,-3.92866364305195e-13,-1.04126400976268e-13,2.94104199550735e-13,-9.60873638398232e-17,-0.00280191561145415,-1.60616774821447e-16,9.4586152222908e-07,4.75012811829528e-16,-0.00533181495928337
9000000000,2,0.013716,0.004064,1.30352261439848e-05,4.37631371189106e-14,-0.999999999999736,-2.32056374646816e-13,5.11322961133554e-14,2.04202504558216e-13,2.5948303378639e-15,-0.00280858746214647,-1.46573916399151e-15,6.90263796386609e-07,5.3817738630158e-16,-0.00532892123713827
9000000000,2,0.013716,0.006096,-1.30352263659684e-05,4.65829826930587e-14,-0.999999999999857,-1.84182999921835e-13,3.79661766729027e-14,2.27270293322503e-13,-2.10827224895518e-15,-0.00280858746218126,4.76332561825897e-15,-6.90263816703857e-07,3.36653199885846e-16,-0.00532892123713755
9000000000,2,0.013716,0.008128,0.000382800484167723,2.0078403788135e-14,-0.998956407254226,-8.45018241735062e-15,2.81262527635316e-13,-6.60828685574211e-14,-4.24000270535939e-16,-0.00280191561144573,5.3336685211726e-16,-9.45861518508702e-07,6.49716859419588e-16,-0.0053318149592825
9000000000,2,0.018288,0.002032,0.00105585203097529,2.6392893229326e-14,-1.61983785844218,-2.44971468263654e-13,-1.46729226523136e-14,2.80781978305047e-13,1.36050417514952e-16,-0.00454696133880185,2.88400265084405e-16,1.91019532752754e-06,-8.34198595158143e-16,0.00201894385557972
9000000000,2,0.018288,0.004064,0.000267623442984246,1.63903046846586e-14,-1.61956085949509,-2.31148343983385e-13,1.07935137060299e-13,5.89214401209347e-14,3.36476398163773e-15,-0.00455467007218784,7.84255470536878e-16,3.3930811789209e-07,-4.5269418722631e-16,0.00203354057150237
9000000000,2,0.018288,0.006096,-0.00026762344319439,2.95530067665908e-14,-1.61956085949509,-1.92744963149062e-13,3.12787756641804e-13,-2.00516014188037e-13,4.40971825713644e-16,-0.00455467007219164,-2.67811171349433e-16,-3.39308116459319e-07,-2.44165690056299e-16,0.00203354057150222
9000000000,2,0.018288,0.008128,-0.00105585203096978,3.88656849345016e-14,-1.61983785844228,-1.78253992908689e-13,8.81114813876954e-14,1.52421891746408e-13,2.272191633512e-15,-0.00454696133879478,-7.41597817803617e-16,-1.91019530062543e-06,-6.57710946344831e-17,0.00201894385558261
9000000000,3,0.009144,0.004064,1,0,7.27928997518993e-06,6.29488110849513e-13,1.37709106805505e-12,-2.78176425950854e-13,1.50707974206173e-14,-2.48451055319167e-08,1.32885752303814e-15,-0.00344735186828003,1.82847667947079e-15,-0.0014138362227758
9000000000,3,0.004572,0.002032,0.618037066849221,-9.21256357676618e-16,1.50721161936189e-06,8.78129727803683e-13,-2.65836227187528e-13,1.90367296412622e-13,-5.99246538878905e-15,-2.17595270701791e-07,1.02899444462171e-15,-0.00213069953073982,-1.7932193542622e-15,-0.00370144168972847
9000000000,3,0.004572,0.004064,1.00000844249947,-8.50760717565337e-15,-6.32446392421884e-05,6.51840439541235e-13,1.0616673128467e-13,-5.75889450133939e-13,3.52656426341503e-16,-1.34594225702198e-07,1.88877059133306e-16,-0.00344740078348885,-1.03829514477579e-15,-0.0014138004210752
9000000000,3,0.004572,0.006096,1.00000844249949,1.55844476588729e-14,6.32446392852389e-05,3.77327126365398e-13,-6.81997478275533e-14,-6.36183799056058e-13,-2.67914075755134e-15,1.34594226831884e-07,3.48012729263715e-15,-0.00344740078348874,-5.54377859341782e-16,0.00141380042107197
9000000000,3,0.004572,0.008128,0.61803706684925,4.55746050452826e-14,-1.50721161817818e-06,1.93565268002479e-13,-6.7167849747766e-15,-3.86299112610911e-13,-1.84644379303479e-15,2.1759528320582e-07,1.40696985153618e-15,-0.00213069953074425,-5.5800871443289e-16,0.00370144168972631
9000000000,3,0.009144,0.002032,0.618035675612873,-1.12245790121174e-14,-1.58348275045611e-06,9.79384899763792e-13,3.24336297423952e-13,-7.47404302106647e-13,-6.64636524980928e-15,8.34460537539569e-09,-2.10630215008248e-16,-0.00213056327426146,1.45434607591107e-15,-0.0037014893459647
9000000000,3,0.009144,0.006096,1.00000000000001,5.92336366523673e-14,-7.27928975299142e-06,3.27883255288957e-13,3.38754822496505e-14,-1.95358571275672e-13,-8.46157462498e-15,2.48450844969441e-08,1.97747545599291e-15,-0.0034473518682668,1.01824899214884e-15,0.00141383622277072
9000000000,3,0.009144,0.008128,0.618035675612844,2.50083744652762e-14,1.58348287271602e-06,8.14598586673352e-14,4.804112227518e-13,-9.88036977243297e-14,1.77909459897308e-15,-8.34459566804318e-09,-1.29681577664032e-15,-0.00213056327425309,9.70124849421136e-16,0.00370148934596507
9000000000,3,0.013716,0.002032,0.618035675612837,-1.08985666832262e-13,1.58348255193171e-06,1.20061260991272e-13,3.65504630271495e-13,-4.60185668516684e-13,8.05998724496951e-15,-8.34458977385074e-09,-4.4597865978775e-16,-0.00213056327425411,2.28825136533388e-15,-0.0037014893459651
9000000000,3,0.013716,0.004064,0.99999999999999,-2.02375747447747e-13,-7.27928987322212e-06,-7.3484224026457e-14,3.18926085847789e-14,-2.32662424458689e-13,1.1238472754317e-15,2.48451147040688e-08,5.23106869897079e-16,-0.0034473518682745,1.99211020088392e-15,-0.00141383622277734
9000000000,3,0.013716,0.006096,1.00000000000002,-2.12647529933767e-13,7.27929015460592e-06,-1.30602573223365e-13,8.22626089415597e-14,-3.67144086576905e-13,-2.16332850138975e-15,-2.48451136146564e-08,7.31190107071389e-15,-0.0034473518682725,2.57769431577022e-15,0.00141383622277421
9000000000,3,0.013716,0.008128,0.618035675612856,-1.05472748747679e-13,-1.58348219462163e-06,-3.65317168336652e-13,-5.59261178011323e-13,-6.75631085736893e-13,-2.20746304260573e-16,8.34458688776253e-09,-1.75092342027317e-15,-0.0021305632742567,2.13726028713467e-15,0.00370148934596482
9000000000,3,0.018288,0.002032,0.618037066849212,-2.91064307832132e-13,-1.50721164599527e-06,-4.40917866598328e-13,7.23965954716661e-14,-6.82511619607634e-13,-4.3697398048875e-15,2.1759528618327e-07,2.21884155619737e-15,-0.00213069953073967,-1.42410196122904e-15,-0.00370144168972093
9000000000,3,0.018288,0.004064,1.00000844249946,-4.22289871328676e-13,6.32446394219957e-05,-4.68651380971808e-13,2.76794986711425e-13,-2.05730818744996e-13,3.11338418661479e-15,1.34594227752887e-07,4.56304046754416e-15,-0.00344740078349067,-7.91933628005329e-16,-0.00141380042107377
9000000000,3,0.018288,0.006096,1.00000844249945,-4.08933774409493e-13,-6.32446391370829e-05,-5.28663391371787e-13,-9.06730300803511e-15,-5.13548248201101e-13,1.75988687080744e-15,-1.34594228364081e-07,1.47477796262126e-15,-0.00344740078349186,6.85127305882657e-17,0.00141380042107506
9000000000,3,0.018288,0.008128,0.618037066849229,-2.34052590190802e-13,1.50721168560714e-06,-6.05118288146541e-13,-8.89557618200649e-14,-2.89393804115655e-13,4.48630902275909e-15,-2.17595269813124e-07,-1.10708543734806e-16,-0.00213069953074042,1.06411511159474e-15,0.00370144168972283
9000000000,4,0.009144,0.004064,1,0,-0.443160611861808,-2.88613980115123e-08,-4.51409381637305e-07,9.77190903078924e-08,-2.41613698140133e-11,-0.00176019859021166,6.13580011924441e-11,-0.0039516212027612,1.81305526132358e-11,-0.00169548064811673
9000000000,4,0.004572,0.002032,1.61852379000051,-6.02932872447655e-12,-0.717050769254678,-4.66755012886741e-08,-1.72446785859484e-07,3.73301500821534e-08,-3.91063741508663e-11,-0.00284530630024189,9.9324926491073e-11,-0.00639698117485742,1.2420002399092e-10,-0.0116146209874131
9000000000,4,0.004572,0.004064,2.619550139051,-1.38980443482783e-11,-0.275005938695029,-1.78037729021588e-08,-2.78986742059336e-07,6.03934554179874e-08,-1.4903210723211e-11,-0.00108505514122939,1.6071394320584e-10,-0.0103544297928758,4.74362718184739e-11,-0.00443608775489589
9000000000,4,0.004572,0.006096,2.61955013905106,-1.39091151733793e-11,0.275005938695374,1.78041834147275e-08,-2.78986728546052e-07,6.0393419795784e-08,1.49000976711945e-11,0.0010850551412299,1.60715209795221e-10,-0.0103544297928867,-4.74372678584669e-11,0.00443608775488612
9000000000,4,0.004572,0.008128,1.61852379000051,-5.9758214413655e-12,0.717050769254791,4.66761264012696e-08,-1.7244658419392e-07,3.73302467209823e-08,3.91056637053918e-11,0.00284530630018868,9.93179021096542e-11,-0.0063969811748787,-1.24200726402879e-10,0.0116146209873948
9000000000,4,0.009144,0.002032,0.617563463643009,1.24233119003233e-12,-1.16403782466595,-7.55017618538813e-08,-2.78977975285168e-07,6.03918733087375e-08,-6.32622930031403e-11,-0.00460139251732775,3.78722060898027e-11,-0.00244029729884041,4.7426301042814e-11,-0.00443507019050112
9000000000,4,0.009144,0.006096,0.999999999999892,3.05996156024347e-14,0.443160611861864,2.88621097450338e-08,-4.51409996638156e-07,9.7718766056174e-08,2.41554977201359e-11,0.00176019859028275,6.13570164806356e-11,-0.00395162120277714,-1.81305161698242e-11,0.00169548064803251
9000000000,4,0.009144,0.008128,0.617563463643093,1.21891575098314e-12,1.16403782466626,7.55023905637538e-08,-2.78977574898909e-07,6.03914837355319e-08,6.32578462970346e-11,0.00460139251731292,3.78730933409757e-11,-0.0024402972988652,-4.74264683315864e-11,0.00443507019049741
9000000000,4,0.013716,0.002032,-0.617563463643824,-8.59014883786577e-13,-1.16403782466633,-7.55018577030426e-08,-2.78977537972311e-07,6.03916091902951e-08,-6.32632259955822e-11,-0.00460139251733202,-3.7871404912645e-11,0.00244029729884245,-4.74238798307909e-11,0.004435070190503
9000000000,4,0.013716,0.004064,-1.0000000000011,5.71065622693908e-13,-0.443160611861872,-2.88617056184058e-08,-4.51409625103676e-07,9.77186246594054e-08,-2.41601107481087e-11,-0.00176019859023455,-6.13574556702369e-11,0.00395162120278501,-1.81291588895616e-11,0.00169548064805493
9000000000,4,0.013716,0.006096,-1.00000000000123,5.61276715778006e-13,0.443160611861711,2.88619006241585e-08,-4.5141021108958e-07,9.77184290868189e-08,2.4156943549356e-11,0.00176019859031492,-6.13575026729122e-11,0.003951621202799,1.81305628872983e-11,-0.00169548064808234
9000000000,4,0.013716,0.008128,-0.617563463643778,-8.70947727802006e-13,1.16403782466583,7.55022153234e-08,-2.78977487096257e-07,6.03914997618038e-08,6.32555182549694e-11,0.00460139251731889,-3.78728151056548e-11,0.00244029729886051,4.7425648482529e-11,-0.00443507019049145
9000000000,4,0.018288,0.002032,-1.61852379000116,6.39631933522562e-12,-0.717050769254652,-4.66756687553361e-08,-1.72446698213762e-07,3.73301518011244e-08,-3.91013960835597e-11,-0.00284530630024867,-9.93191805458764e-11,0.00639698117486083,-1.24197167524144e-10,0.011614620987447
9000000000,4,0.018288,0.004064,-2.61955013905221,1.43640489738987e-11,-0.275005938695562,-1.78040952705154e-08,-2.78986739554204e-07,6.03931443737497e-08,-1.49025451293464e-11,-0.00108505514123227,-1.60711224217848e-10,0.0103544297928853,-4.74357189137591e-11,0.00443608775489474
9000000000,4,0.018288,0.006096,-2.61955013905212,1.43741724015081e-11,0.275005938694748,1.78037622480444e-08,-2.78986173845502e-07,6.03931396973446e-08,1.49039247752231e-11,0.00108505514123751,-1.60709392911061e-10,0.0103544297928971,4.74369527589473e-11,-0.00443608775490051
9000000000,4,0.018288,0.008128,-1.61852379000119,6.33018766718761e-12,0.717050769254216,4.66754213738448e-08,-1.72446089914895e-07,3.73301489921062e-08,3.91136849347213e-11,0.00284530630015196,-9.93164542057177e-11,0.00639698117484613,1.24198684077681e-10,-0.0116146209874503
9000000000,5,0.009144,0.004064,-0.109432469922046,-5.79757341818746e-09,-0.246861349323362,2.5691917806667e-09,1,-0,-1.02063569127409e-11,0.000439876779084416,-2.2909808199755e-11,-0.000195489694499636,-9.82976417555739e-12,-7.08515992386995e-12
9000000000,5,0.004572,0.002032,-0.177178308883684,-9.38350567347741e-09,-0.39918715139795,4.15707801435431e-09,0.382017627535034,-3.77099172826504e-15,-1.64954952667588e-11,0.000711540477519558,-3.70877574862442e-11,-0.000316348312536552,-6.73364392086522e-11,-4.85378290798254e-11
9000000000,5,0.004572,0.004064,-0.286802060156457,-1.51870137309586e-08,-0.152102679507058,1.59429219521689e-09,0.618033798970123,1.79407725117905e-14,-6.29082739306975e-12,0.000271248137276812,-6.00301261723049e-11,-0.000511556883639129,-2.57183455560861e-11,-1.8538493442018e-11
9000000000,5,0.004572,0.006096,-0.286802060156469,-1.5187006408258e-08,0.152102679506804,-1.59440633247427e-09,0.618033798970177,4.63019169567435e-14,6.29127778795822e-12,-0.000271248137277461,-6.00307888813085e-11,-0.000511556883639385,2.57184941804204e-11,1.85385211736042e-11
9000000000,5,0.004572,0.008128,-0.177178308883856,-9.38350219313215e-09,0.399187151397756,-4.15720917156324e-09,0.382017627535063,1.72832899959726e-14,1.64962001496837e-11,-0.00071154047751787,-3.70866868620179e-11,-0.00031634831253841,6.73365124747763e-11,4.85377872738708e-11
9000000000,5,0.009144,0.002032,-0.0675691716394161,-3.5803740273157e-09,-0.645267489564822,6.74848242339568e-09,0.618014602703832,-1.28578245431416e-15,-2.66768265535486e-11,0.00115092901998449,-1.41476388580507e-11,-0.000120520862061876,-2.57125599244078e-11,-1.85340343592316e-11
9000000000,5,0.009144,0.006096,-0.109432469921973,-5.79757126686699e-09,0.246861349322963,-2.56927006330127e-09,1.00000000000006,3.96494635664003e-14,1.02058093975446e-11,-0.000439876779091178,-2.2909264624097e-11,-0.000195489694493325,9.82948456178481e-12,7.08567942215072e-12
