#frequency,mode,x,y,Ex_re,Ex_im,Ey_re,Ey_im,Ez_re,Ez_im,Hx_re,Hx_im,Hy_re,Hy_im,Hz_re,Hz_im
9e+09,1,0.009144,0.004064,-3.95328345642717e-07,-7.63743219487933e-16,1,0,7.38332547282568e-16,-3.74238192573247e-13,-0.00181935815131161,-2.98454131974859e-17,-3.4526173266694e-09,1.13779045258186e-17,-1.91360354817619e-19,0.000628378343521861
9000000000,1,0.004572,0.002032,6.13091867382793e-06,2.088596114165e-15,0.618029436859342,4.96333931796365e-15,5.15747071846605e-16,-4.01662908076568e-13,-0.00112440820585595,3.71328597689211e-18,1.4569056524393e-09,5.93570214337565e-18,1.95763252086433e-18,0.00164510560832268
9000000000,1,0.004572,0.004064,-1.87883666235528e-06,9.65056197663061e-15,0.618035272850438,1.19492487154359e-14,2.17127313542849e-15,5.01115605924602e-14,-0.0011244309502723,5.93437406676322e-18,-2.00534848898231e-09,-2.87674521826864e-18,7.55655589133949e-17,0.00164510283272507
9000000000,1,0.004572,0.006096,1.76141860710134e-07,3.05019554934624e-15,0.618034890667967,7.61096244363612e-15,1.0061040851e-15,2.57003102621621e-13,-0.00112442732328606,-2.00384775074411e-17,1.57430933333213e-11,6.71425939535074e-18,-5.72586301926959e-17,0.0016451041463912
9000000000,1,0.004572,0.008128,-4.67463103260367e-06,1.62877085812624e-15,0.618028022933542,6.72401045836404e-15,4.86169181743131e-16,2.57805816643874e-13,-0.00112442079043003,-2.01926219745852e-17,-1.31777538975558e-08,-1.65290474918965e-18,1.31651302909899e-17,0.00164511012023127
9000000000,1,0.009144,0.002032,-1.00886398143526e-06,7.49678312186826e-16,1.00000131392328,5.62281518588363e-15,5.66889134019742e-16,-2.49489297299261e-13,-0.00181936461251502,6.60720294379711e-18,-1.54428515402243e-09,1.01611664579244e-17,-8.29566405023675e-19,0.000628366965196617
9000000000,1,0.009144,0.006096,6.50451564780969e-08,6.03203222502339e-16,1.00000060804461,1.2160342903646e-14,1.03633489254166e-15,9.76417671759151e-14,-0.00181935767019061,-2.38494538987722e-17,2.73148356304695e-09,6.9241653966973e-18,-9.78115488513751e-18,0.00062837394241447
9000000000,1,0.009144,0.008128,4.71772968890045e-07,-8.74935513421591e-17,1.00000171903705,1.16618528818796e-14,8.43211256102537e-16,2.38151240362655e-13,-0.0018193665952769,-2.93996611504337e-17,-1.09649767462305e-09,-2.73878421482187e-18,1.66457368960511e-19,0.000628367657706366
9000000000,1,0.013716,0.002032,3.88088727194402e-07,-2.09553325058829e-15,0.999999823473103,1.15304100500403e-14,8.21697339662574e-16,-3.82734105220792e-15,-0.00181936624918702,-1.07726631125376e-17,-1.93310585254605e-09,-1.9481136990011e-18,-5.24661746751838e-19,-0.000628370113948109
9000000000,1,0.013716,0.004064,3.58909190830526e-07,-1.27002459834282e-15,1.00000021116039,1.11334225500118e-14,1.47043890891753e-15,-1.26636410627693e-14,-0.00181935774856815,-9.64990217306702e-18,2.36825556702614e-09,4.05005544533142e-18,7.99043428966408e-18,-0.00062837372304749
9000000000,1,0.013716,0.006096,-5.60947390878303e-08,2.35653099722205e-15,1.00000051230269,7.43503009305181e-15,1.90793657979597e-15,1.10840952397913e-13,-0.0018193575915092,-2.48818172146829e-17,-2.91179733120078e-09,-8.61469852809938e-18,1.90136999008439e-17,-0.000628375152536846
9000000000,1,0.013716,0.008128,-4.71886750751663e-07,1.30967571566232e-15,1.00000163193911,1.60695246902088e-14,1.03192539241891e-16,1.78586642987123e-13,-0.0018193657896791,-3.57629822307991e-17,5.55834251941906e-10,6.86661134331744e-18,-2.73401697530415e-17,-0.000628370865891281
9000000000,1,0.018288,0.002032,-4.97029557824769e-06,-2.28928885477025e-16,0.618028522687915,8.55261015668247e-15,-1.1285318805139e-18,-1.68823888449496e-13,-0.00112442619470919,-7.55145685345897e-19,-9.87174726005893e-09,1.74092960130342e-17,1.27985232365699e-17,-0.00164510992747775
9000000000,1,0.018288,0.004064,3.78134667118224e-07,1.07133255012169e-15,0.618034053722651,2.89119481473446e-15,1.23204238367399e-15,-2.17590559505748e-13,-0.00112442730139999,4.23293379399527e-18,-1.4150008815939e-11,4.94478551633997e-18,2.65219384724532e-17,-0.00164510362242025
9000000000,1,0.018288,0.006096,-2.04142214049409e-06,-7.93420488370806e-15,0.618035057443036,9.49333665634149e-15,1.36022176238694e-15,-1.59971011981987e-13,-0.00112443080304234,-4.43243255486324e-17,-8.10649923151422e-10,9.27171126521421e-18,3.11931463260371e-17,-0.00164510328308627
9000000000,1,0.018288,0.008128,6.12976104043705e-06,-6.84650579624685e-15,0.618029057928876,3.77837996304373e-14,-1.6826240894155e-15,9.31150590951983e-14,-0.0011244012581176,-9.32594530859668e-18,4.75933982894241e-09,-1.65293710140363e-17,2.10056321512506e-17,-0.00164510485499568
9000000000,2,0.009144,0.004064,1.38693131643578e-05,-2.37636697414616e-15,1,-0,-2.37913369797423e-12,3.53815919507546e-15,2.17338462054482e-17,0.00281263248651793,-2.13135942410057e-17,-1.86065628588311e-07,5.22133884339823e-17,-0.00532329575094257
9000000000,2,0.004572,0.002032,2.56501980290571e-05,-6.07095963914674e-15,1.6179310753541,-2.28495035417471e-14,-2.32257525020163e-12,2.46604524074124e-15,2.84162423469715e-17,0.00455041867882979,-6.7898143441248e-18,-3.53180742126752e-08,5.53995145445494e-19,0.00203341405058716
9000000000,2,0.004572,0.004064,-9.14633584485401e-06,5.54379858112245e-15,1.61794436735098,-9.03128841470418e-15,-8.68016822926005e-13,4.5408226266308e-15,5.40478135586612e-17,0.00455050471839151,-2.35033098502202e-17,1.35619264814489e-08,-3.54666181554833e-17,0.00203329049924993
9000000000,2,0.004572,0.006096,7.89429294394949e-07,-1.00076595791113e-15,1.61794319622447,-1.59629318447476e-14,9.80432002252042e-14,4.8264380323718e-15,2.46162861105112e-17,0.00455047957113397,-1.68658482939853e-17,1.08556156884491e-10,-6.01942348731518e-17,0.00203334313944096
9000000000,2,0.004572,0.008128,-1.68320997001912e-05,-2.30272170343031e-16,1.61791866699887,-1.00818396030902e-14,6.03185258276432e-13,4.10162891605944e-15,4.49029839141683e-17,0.00455046040357169,-2.01604934243936e-17,7.99439760314303e-08,-3.37657693393213e-17,0.00203358530529894
9000000000,2,0.009144,0.002032,3.72381617718984e-05,-1.00207321406807e-15,0.999942504649767,-7.49269351354639e-15,-1.55845318904165e-12,3.20378027962183e-15,3.92374825487661e-17,0.00281215075452732,-1.03171989838883e-17,-7.29711960688485e-08,-8.71755870989613e-17,-0.00532344452623032
9000000000,2,0.009144,0.006096,1.44408665810004e-07,-4.08739412017619e-15,0.999979589590389,-1.22523871728614e-14,-1.38410540715543e-12,3.5104760171429e-15,1.85871959850495e-17,0.00281266702223136,-1.6727607377464e-17,1.82217293574692e-07,-4.25921860088418e-18,-0.00532336336940217
9000000000,2,0.009144,0.008128,-1.86276358854036e-05,-5.08685291297931e-15,0.999930333591887,-9.57298590195966e-15,-4.69872025811805e-13,2.78005243965851e-15,3.27202773320179e-17,0.00281202909040467,-2.02010599774153e-17,-8.5171559847914e-08,6.76591119129326e-18,-0.0053234449641278
9000000000,2,0.013716,0.002032,1.21562018623624e-05,-1.50597795137265e-15,-0.99998482741111,2.5207981380636e-15,-9.45475627012523e-13,5.9369078946836e-16,-9.73209839271645e-18,-0.00281207713821399,-1.68026010197243e-17,1.22291306197492e-07,-6.87116791935832e-17,-0.00532337317854772
9000000000,2,0.013716,0.004064,1.26458420473731e-05,-1.1616500774305e-14,-0.999994642431986,4.21927921605365e-15,-1.39313557851907e-12,6.43590005638034e-16,-1.90687345034111e-17,-0.00281264641373287,-4.59542449595556e-18,-1.37801531092624e-07,-9.59294271845697e-17,-0.00532335271500213
9000000000,2,0.013716,0.006096,1.69463768686268e-07,-1.21500298690828e-14,-0.999982116640033,1.52465168657217e-14,-1.61983847272523e-12,2.29871737700554e-17,-2.44897052560211e-17,-0.00281267195167749,-3.00210886184075e-17,1.87565543013648e-07,-5.58193569409948e-17,-0.00532334479377948
9000000000,2,0.013716,0.008128,-1.88296985918575e-05,-3.76772650074249e-15,-0.999935381111617,8.49047700228002e-15,-1.19323744940246e-12,-1.20104913530379e-15,-7.38979903866217e-18,-0.00281211586872614,-1.53714738726007e-17,-3.18667360633818e-08,-2.65998755920986e-17,-0.0053234174798412
9000000000,2,0.018288,0.002032,1.79715646271022e-05,-1.32264059277273e-15,-1.61792095780846,7.45124153775997e-15,2.5456534199757e-13,-7.79011773282391e-16,-3.93966526169153e-17,-0.00455049537802145,-3.84365200246175e-17,-5.60027623980454e-08,3.07615923893451e-18,0.0020335768748315
9000000000,2,0.018288,0.004064,-1.84398677879265e-06,5.46251402385734e-16,-1.61793833590448,1.18087533980523e-14,2.03394894109064e-13,-4.40072954597613e-16,-4.85494131800638e-17,-0.00455047756893408,-2.09669126505952e-17,2.03182762044965e-10,1.12826501017834e-17,0.00203332134468946
9000000000,2,0.018288,0.006096,9.22614371334924e-06,-1.00970729679001e-14,-1.61794399625317,1.54820711546196e-14,-5.49195711747173e-15,-8.49654332066629e-16,-4.19966239668851e-17,-0.00455050250552706,-7.40414815813653e-18,-6.01693746369594e-09,1.11546920444021e-16,0.00203330893479102
9000000000,2,0.018288,0.008128,-2.58205225926622e-05,-6.32814223936414e-15,-1.61792909901646,2.27430195049991e-14,-7.74995913495616e-13,5.35161475154391e-16,-3.54500708199782e-17,-0.00455038436485943,-2.12710902090211e-18,5.55587957396375e-08,1.07080535175233e-16,0.00203339550961026
9000000000,3,0.009144,0.004064,1,0,-6.4674126858957e-06,2.37706776075779e-14,2.03635755411979e-12,-5.87341017636885e-15,4.91646215483228e-18,-3.40035072070093e-10,4.60935196055993e-17,-0.00344732313609622,3.00322296240765e-17,-0.00141386830501653
9000000000,3,0.004572,0.002032,0.618041928495364,-9.77722276136576e-16,4.26694520907842e-06,-8.15707652739931e-15,1.18492092274265e-12,-1.22839723585307e-15,3.68037048299122e-17,1.99181302135387e-07,3.00048674694874e-18,-0.0021304291250338,1.54613347706993e-17,-0.00370177378169872
9000000000,3,0.004572,0.004064,0.999990686913702,-8.76148016302437e-15,6.27769904823581e-06,-2.00888262575012e-14,9.91076888491095e-13,-1.89280849948688e-16,3.25135799176426e-17,3.99253380283531e-09,-1.01394447260843e-17,-0.00344723263140236,-1.30028338831399e-16,-0.00141398513704589
9000000000,3,0.004572,0.006096,0.999999514095863,-4.99173048066435e-15,9.19958388357051e-07,-1.67580651818529e-14,6.46653282987954e-13,-3.93161569304288e-15,2.75477256124197e-17,3.47850522010504e-10,1.24632504844609e-17,-0.00344731030585217,1.36652075165345e-16,0.00141388052858072
9000000000,3,0.004572,0.008128,0.618031976008518,1.54481462082957e-15,-2.41523069072313e-06,-8.82689285479705e-15,-2.38212713959412e-13,-2.25960757496761e-15,4.03220059668446e-17,-1.21715960237317e-08,-6.49568203107666e-18,-0.00213055271393911,-3.03727708589241e-17,0.00370149889466761
9000000000,3,0.009144,0.002032,0.618031080045609,1.2771644259098e-15,1.35579512634694e-06,3.4565508610609e-15,1.52277874727983e-12,-4.00221619901582e-15,4.71677981079449e-17,1.10358777345604e-08,2.29055677518943e-17,-0.00213055936715621,5.03699842345415e-18,-0.00370148128169998
9000000000,3,0.009144,0.006096,1.00000109749625,3.34342867435706e-15,2.78447705819251e-06,-1.8264716624333e-14,1.81851759702949e-12,-3.29340888925195e-15,2.41817029210548e-17,-3.83924376011486e-09,2.33122458554691e-17,-0.00344733254316177,4.6006725223151e-17,0.0014138477558254
9000000000,3,0.009144,0.008128,0.618033888861467,9.11717044537448e-15,-1.94457699389018e-06,-1.31500888911023e-14,7.67924506727445e-13,-3.29081046582937e-15,3.60433558554182e-17,-5.88827668692573e-09,5.9097468380316e-18,-0.00213056735059047,-1.02591495363886e-16,0.00370148124941219
9000000000,3,0.013716,0.002032,0.618039061268082,9.22922214285565e-15,2.09768107911083e-05,7.49745648716476e-15,2.86404836589189e-12,-2.48428965450988e-15,-1.71640776655445e-17,2.54933652337529e-09,2.52440262656964e-17,-0.00213063387710726,-2.27725765322395e-18,-0.00370145606636274
9000000000,3,0.013716,0.004064,1.00000063730493,1.05021378682673e-14,4.24008689498765e-06,1.2128846708715e-14,4.50441601359245e-12,-3.58479838130425e-15,-1.61201738215328e-17,4.88469206402658e-10,4.33525380945763e-17,-0.00344733425181733,-9.72778029814141e-17,-0.00141383764728201
9000000000,3,0.013716,0.006096,1.00000096487306,1.26265897212111e-14,-3.55692034232484e-06,1.38244057456878e-14,5.2900651457688e-12,-8.63834402393647e-15,-1.58464079541793e-17,1.74893694883145e-09,3.55155665927319e-17,-0.00344733026290616,-6.84838795447718e-17,0.0014138706363534
9000000000,3,0.013716,0.008128,0.618034384487356,6.56779204152571e-15,1.34253653637668e-06,-4.62902222744412e-15,3.42873152443446e-12,-1.19885877363474e-15,-2.15520137670699e-17,7.7907029864867e-09,3.65835594498967e-17,-0.00213057094508808,-1.38487274026319e-16,0.00370147973707155
9000000000,3,0.018288,0.002032,0.618037637180375,1.05520929102759e-14,-3.25090908126637e-06,1.84363536316272e-14,2.61720905459501e-12,1.32013179455741e-15,-4.65713499563816e-17,-9.27945408468391e-08,6.38717575082306e-17,-0.00213053828843798,2.68335179630409e-17,-0.00370149065714855
9000000000,3,0.018288,0.004064,0.999996273933891,7.64163905068147e-15,2.84338587570214e-06,1.34380571975113e-14,3.578458352191e-12,-1.81979095458137e-15,-2.12151727132442e-17,3.12020272565155e-09,5.86969362639367e-17,-0.0034473225290785,4.88915050061301e-17,-0.00141382208147477
9000000000,3,0.018288,0.006096,1.00000217742623,2.52293034596996e-14,1.62507495592677e-05,1.20486250077257e-14,2.84339546984164e-12,4.27266158875688e-16,-5.37084105428238e-17,1.06680573540249e-08,6.4812324783367e-17,-0.00344724064462153,-1.59372550630329e-16,0.0014139871523589
9000000000,3,0.018288,0.008128,0.618039865186432,1.55137681748065e-14,5.86316116199465e-06,-1.59417136612296e-14,1.70067799160774e-12,-2.17241750134551e-15,-2.82006776683142e-17,3.19828591371379e-08,4.36585938735009e-17,-0.00213057144863842,-1.20351406816057e-16,0.00370146897925839
9000000000,4,0.009144,0.004064,1,-0,-0.444627588119696,1.28429670143817e-07,0.000405257491380676,-4.35180188491515e-07,1.07565884334156e-10,-0.00175673610151409,-2.73427056318075e-10,-0.00395348660924499,-8.07162409462279e-11,-0.00169330163701944
9000000000,4,0.004572,0.002032,1.61814567885416,8.42591030464121e-12,-0.71946814049267,2.07829371316332e-07,0.000154794891409349,-1.66224367881493e-07,1.7410033038308e-10,-0.00284239705780684,-4.42419655615206e-10,-0.00639603811470407,-5.53223384768647e-10,-0.011605765930785
9000000000,4,0.004572,0.004064,2.61791257508645,-7.53931025980933e-12,-0.274783949773466,7.93995867558672e-08,0.000250461631719975,-2.68954788055291e-07,6.64868476765707e-11,-0.00108608992346881,-7.15846572216492e-10,-0.0103479540162001,-2.11322628253616e-10,-0.0044332221529246
9000000000,4,0.004572,0.006096,2.61801532771023,1.1473718482976e-12,0.274765688947693,-7.9387707203803e-08,0.000250462774585862,-2.68956017801215e-07,-6.64802312098338e-11,0.0010857430152119,-7.15901888300335e-10,-0.0103489453928422,2.11309082171309e-10,0.00443293364711208
9000000000,4,0.004572,0.008128,1.6180943244598,2.11247994330393e-12,0.719456136257802,-2.07826745143695e-07,0.00015479478874783,-1.66224266055694e-07,-1.74032684095585e-10,0.0028423824093808,-4.42465553685651e-10,-0.00639631810950066,5.53191052239767e-10,0.0116050857968494
9000000000,4,0.009144,0.002032,0.618006647872985,4.86517631337516e-13,-1.16382871047269,3.36275196628861e-07,0.000250462954551334,-2.68956200196843e-07,2.81611428271934e-10,-0.00459910208107359,-1.68996610263935e-10,-0.00244292505099097,-2.11303260757864e-10,-0.00443281387242721
9000000000,4,0.009144,0.006096,1.00001561475853,3.43556943888093e-12,0.444605913866569,-1.28440550989486e-07,0.000405257285969845,-4.35179972291179e-07,-1.07570397333722e-10,0.00175659794558203,-2.73454152411176e-10,-0.00395322677527904,8.07118396849692e-11,0.00169320999076455
9000000000,4,0.009144,0.008128,0.61800224138389,1.88649736448894e-13,1.16383118236262,-3.36275244546843e-07,0.00025046283747895,-2.68956079604493e-07,-2.81609879052324e-10,0.00459908688082101,-1.68994853068478e-10,-0.00244294862856547,2.11300480662227e-10,0.00443275204218763
9000000000,4,0.013716,0.002032,-0.61801752846338,-3.51643705223977e-12,-1.16392175690942,3.36261719003213e-07,0.000250462333177529,-2.68955538275334e-07,2.81598445845957e-10,-0.00459884189208642,1.69015075690603e-10,0.00244331946886067,2.11309994701891e-10,0.00443295553971158
9000000000,4,0.013716,0.004064,-1.00000477214235,-3.10201318331056e-12,-0.444624370448256,1.28438886922721e-07,0.000405257502408165,-4.35180208208565e-07,1.07560967003907e-10,-0.00175669655736761,2.73451343534408e-10,0.00395340339315207,8.07136328627096e-11,0.00169324571687365
9000000000,4,0.013716,0.006096,-1.00001669929755,-2.83203029053914e-12,0.444604371839746,-1.28439592486387e-07,0.000405257346564644,-4.35180040054546e-07,-1.07566696052049e-10,0.00175661813686114,2.73456106158174e-10,0.00395327311936265,-8.07150623918903e-11,-0.0016932775212193
9000000000,4,0.013716,0.008128,-0.61799998086,-4.13394810227349e-13,1.16384320586704,-3.36274835846302e-07,0.000250462818088045,-2.68956061333705e-07,-2.81607400292454e-10,0.00459909153662189,1.68995710021716e-10,0.00244294231222118,-2.11300663012475e-10,-0.00443276261872181
9000000000,4,0.018288,0.002032,-1.61810232703703,-3.42058277199205e-12,-0.719466498552315,2.07830021954423e-07,0.000154794779496532,-1.6622425581007e-07,1.7404679090917e-10,-0.00284231737860301,4.42468807334041e-10,0.00639635700195251,5.53201982044266e-10,0.011605322523169
9000000000,4,0.018288,0.004064,-2.61802488404574,-5.96909258875781e-12,-0.274749497342081,7.93811862777706e-08,0.000250462851453688,-2.68956104370776e-07,6.64776996531376e-11,-0.00108559028611736,7.15916170538464e-10,0.0103491435348837,2.11299880464943e-10,0.0044327460001234
9000000000,4,0.018288,0.006096,-2.61796649839588,-5.65169675896432e-12,0.274743122762195,-7.9410083631177e-08,0.000250461599399594,-2.68954754119234e-07,-6.65020309528747e-11,0.00108611882010424,7.15848331214072e-10,0.0103481409405916,-2.11322681020945e-10,-0.00443321820829934
9000000000,4,0.018288,0.008128,-1.61814556628127,-7.60208981619094e-12,0.719460339063296,-2.0782789493735e-07,0.000154795007832396,-1.66224500111986e-07,-1.7402900130167e-10,0.00284253406797044,4.42482304693902e-10,0.00639625448967548,-5.53187528185824e-10,-0.0116050147015675
9000000000,5,0.009144,0.004064,-0.109530781244574,-2.49711098394406e-07,-0.246431086545139,1.10998650968412e-07,1,-0,-4.38701513082338e-10,0.000439603056795728,-9.87166646483551e-10,-0.000195307168318135,-4.22815624661674e-10,-1.73776795379196e-08
9000000000,5,0.004572,0.002032,-0.177256116271163,-4.04069184963591e-07,-0.39878810759701,1.79610817463803e-07,0.381966754618271,-4.95816787595019e-16,-7.09818461941207e-10,0.000711412640918319,-1.5970593161529e-09,-0.000316117707791179,-2.89796052362438e-09,-1.19105368621943e-07
9000000000,5,0.004572,0.004064,-0.286724737243856,-6.537219086273e-07,-0.152363015438393,6.85979988403954e-08,0.618030849569372,4.01470302481608e-15,-2.7122360211013e-10,0.00027174716320469,-2.58383241990921e-09,-0.000511596464352277,-1.1069749211058e-09,-4.54963989985919e-08
9000000000,5,0.004572,0.006096,-0.286755880889153,-6.53747469526755e-07,0.152337724773281,-6.85937464211825e-08,0.618033671455071,3.96751827485379e-14,2.71137766071567e-10,-0.000271693954222714,-2.58408019205925e-09,-0.000511615102246409,1.10689124592269e-09,4.54934375710856e-08
9000000000,5,0.004572,0.008128,-0.177235973673423,-4.04055990742217e-07,0.398783424300003,-1.79607959624103e-07,0.381966512346815,4.80393853196982e-14,7.09815176947597e-10,-0.000711255562870212,-1.59712846673262e-09,-0.000316192501225323,2.89779338720561e-09,1.19098384248273e-07
9000000000,5,0.009144,0.002032,-0.0676918773019922,-1.54323084448193e-07,-0.645285611845378,2.90542672587766e-07,0.618034112016538,1.32340361730123e-14,-1.14851238560042e-09,0.00115088648038141,-6.09986436326304e-10,-0.00012077877354057,-1.10687664524454e-09,-4.54922063949863e-08
9000000000,5,0.009144,0.006096,-0.109540401628273,-2.49715017451809e-07,0.246458473903706,-1.1099319576568e-07,0.999999493761754,4.8140559630256e-15,4.38667062906371e-10,-0.000439598431362233,-9.87101217967711e-10,-0.000195397657839347,4.22800788295775e-10,1.73767387837843e-08
