#frequency,mode,x,y,Ex_re,Ex_im,Ey_re,Ey_im,Ez_re,Ez_im,Hx_re,Hx_im,Hy_re,Hy_im,Hz_re,Hz_im
9e+09,1,0.009144,0.004064,-7.93226705049706e-07,2.52667028927021e-15,1,-0,1.76959178478221e-16,-6.89059663647125e-14,-0.0018193567454155,-1.43410737035394e-17,4.71746836741584e-10,-1.60575278907891e-18,6.70122247722598e-18,0.000628375575766514
9000000000,1,0.004572,0.002032,2.50872350344509e-06,3.55162299138049e-16,0.618032817723379,4.12643784000712e-15,-1.1432125705657e-16,-5.09496002236026e-14,-0.0011244281692854,-1.37555343766249e-17,-2.00353735939093e-10,5.13718569808662e-19,-2.49433135177727e-17,0.00164510228828927
9000000000,1,0.004572,0.004064,-1.70719612952284e-06,2.39219624744899e-16,0.6180342505166,2.37724189463755e-15,-2.9847102729353e-16,1.01998027229112e-14,-0.00112443012394975,5.07964661008184e-18,-1.34674715466769e-09,-1.04021215534203e-17,1.49805815440737e-17,0.00164510173540309
9000000000,1,0.004572,0.006096,-4.0161717531076e-07,-2.89932207657923e-16,0.618032958518437,3.63477906543338e-15,-2.11764019068637e-16,1.59851610015388e-13,-0.0011244255841367,-1.7464353628119e-17,-1.35347950700218e-09,1.0555865210521e-17,-2.28700111236563e-17,0.00164510225451749
9000000000,1,0.004572,0.008128,-9.12095795930832e-06,1.59051587535694e-16,0.618028716761411,4.24277990279477e-15,-1.16761951908296e-16,1.53122985961967e-13,-0.00112445607680715,-1.41907796998188e-17,-5.17820938147792e-09,-4.04005162090695e-18,-1.13659189481697e-17,0.00164509211019372
9000000000,1,0.009144,0.002032,-6.09050044021718e-08,-5.01735457492072e-16,0.999999952387789,3.8853079973562e-15,3.57569056695854e-17,1.18315794920139e-13,-0.00181935803472618,-3.48163127735123e-18,-2.38574872092015e-11,6.86763786530063e-19,1.58964783729441e-17,0.00062837511738728
9000000000,1,0.009144,0.006096,3.53871614072084e-07,-1.72898572554612e-15,0.999999251196766,2.04574343401834e-15,1.12824321898368e-16,3.24721995591176e-13,-0.00181935505599022,1.63288560069436e-17,1.61873675595872e-09,-1.57814888300983e-17,-6.35660636372018e-17,0.000628375291488724
9000000000,1,0.009144,0.008128,9.99501574362754e-07,9.12570549978085e-16,1.00000000827836,3.57752190300274e-15,3.55341276515874e-16,2.40420481537264e-13,-0.00181936199973995,-2.87186632416289e-18,1.89883052138431e-09,2.46621596728868e-18,2.788172382011e-17,0.000628365215339817
9000000000,1,0.013716,0.002032,1.08596554516674e-06,-4.47901076081567e-16,0.999998047177345,1.34676995568306e-15,4.16381008062104e-16,-1.25044557635665e-14,-0.00181935999802455,7.27639640559683e-18,-1.44702638176567e-09,2.8861233001148e-18,-3.10711554954047e-18,-0.00062837348309676
9000000000,1,0.013716,0.004064,-2.29399963986827e-06,-3.48656829231655e-15,1.00000005905524,6.30676448513221e-15,1.36329070979841e-15,-4.42849934430859e-14,-0.00181937171068743,1.38674408581993e-17,-6.47538450324667e-10,-1.62321804043197e-17,2.71340874123594e-17,-0.00062834945601417
9000000000,1,0.013716,0.006096,-7.22507759214247e-07,-2.56823923910316e-16,0.999999899079629,1.19473822189584e-15,1.003535754002e-15,2.17748099192628e-13,-0.0018193561716925,-7.48206379295445e-18,-8.64427484985343e-10,-1.20039191496572e-17,5.26714595887954e-18,-0.000628377380674686
9000000000,1,0.013716,0.008128,-1.16935734675083e-06,1.20826252599025e-15,0.999998215370654,2.9216135830959e-15,4.8878489421218e-16,1.31195392195996e-13,-0.00181936003510115,-7.6206815093399e-18,7.58039514890522e-10,3.85768703675024e-18,8.44869348414544e-18,-0.000628369868521305
9000000000,1,0.018288,0.002032,-1.17133761948773e-05,1.20014668670305e-15,0.618024881485688,-6.69170042068461e-16,-1.11470404973584e-16,-4.63909514908652e-14,-0.0011244362472632,7.20688479497544e-18,1.58609133712399e-09,9.86281073987795e-18,1.62693258451907e-17,-0.00164509039780235
9000000000,1,0.018288,0.004064,-2.05599847347414e-07,2.05068546744536e-15,0.618033192557157,1.51267410840386e-15,-1.93632304718655e-16,3.02473586938027e-14,-0.00112442889176428,-3.5877520811484e-18,-6.59904659239572e-10,6.87732223238474e-18,5.04704403465972e-18,-0.00164510091688698
9000000000,1,0.018288,0.006096,-1.82359217625004e-06,2.19943905840985e-15,0.61803413790184,2.48582589395837e-15,-4.67583482739615e-16,-1.85551660329313e-13,-0.0011244273588998,-6.71637070861146e-18,-4.03578337911288e-10,3.17438505656516e-18,3.63698794137658e-17,-0.00164510124237157
9000000000,1,0.018288,0.008128,4.07671636837894e-06,-1.11336727527698e-16,0.618029786335602,2.73828379058303e-15,-3.75939269326201e-17,1.85993568624275e-13,-0.00112440998240167,1.14531827169338e-17,1.01884441785386e-09,3.59008323570742e-18,2.49146333638055e-18,-0.00164510779537904
9000000000,2,0.009144,0.004064,2.57738362330174e-05,-1.59886535032865e-15,1,-0,-7.2580042006311e-13,1.28347325359964e-14,8.55218108801051e-18,0.00281268550049489,-1.72380808216123e-17,3.08310955534189e-08,-4.02008461391164e-18,-0.00532351571670525
9000000000,2,0.004572,0.002032,1.27915548482915e-05,-1.3194962934934e-14,1.61800429967173,2.18239004815431e-14,-4.59624713540673e-13,8.68877993447097e-15,-3.6273129764178e-19,0.00455068404767167,5.07470128588298e-17,-9.75070714811063e-09,-2.97687172831841e-17,0.0020334357018421
9000000000,2,0.004572,0.004064,-8.49443902201191e-06,-6.16757036110785e-15,1.61800600255018,1.90860863555174e-15,-3.31665601705475e-13,2.44930453077342e-15,5.82842477726138e-18,0.00455068427661646,-1.24558081161283e-17,8.85594650378542e-09,8.75546081138391e-17,0.00203341110704971
9000000000,2,0.004572,0.006096,-1.30983919514225e-06,-1.08052032971009e-14,1.61799976306496,-3.62286472958238e-15,3.36537799397082e-13,2.37928818158973e-15,-1.40264421116227e-17,0.00455065051931648,2.05824968677938e-18,8.70665748192735e-09,-4.10036207100672e-17,0.00203343322800223
9000000000,2,0.004572,0.008128,-2.72443461642277e-05,-4.61757913895449e-15,1.61800079551057,6.24057848849564e-15,4.73507048323216e-13,1.37774714626404e-15,1.30640710709256e-17,0.0045508392923849,6.81601748206885e-19,1.17639288862163e-08,3.39336427658451e-17,0.00203297288088213
9000000000,2,0.009144,0.002032,4.01771893840405e-07,-9.67196801769215e-15,0.999992966569509,-6.73704526928218e-15,-1.27242772319489e-13,8.01327003003726e-15,-4.37214316197633e-17,0.00281256729005514,-1.38750409934282e-17,5.72951927253679e-09,5.51607756747145e-18,-0.00532353920148393
9000000000,2,0.009144,0.006096,-1.32910795411655e-05,-6.45749422081909e-15,1.00001809483758,1.14299675380168e-14,-6.36133745103495e-14,1.2521134858554e-14,3.80399061692213e-18,0.00281277817629537,6.62660726527172e-18,1.16006966653284e-07,9.07247989385324e-17,-0.00532349923500608
9000000000,2,0.009144,0.008128,-3.68923273181023e-05,-9.69325856981317e-15,0.999981799615818,6.06525178251465e-15,1.41748334378288e-13,6.16061196666248e-15,-8.43108535711694e-18,0.00281225058696744,4.6874012877542e-18,1.11728439442331e-07,3.6645517951802e-17,-0.00532369858063943
9000000000,2,0.013716,0.002032,3.57996505549234e-05,-1.21849061528475e-15,-1.00003813645226,-1.04151387563437e-14,-4.39858320822682e-13,1.09542500019347e-14,-2.683127222699e-17,-0.00281239943563258,-8.69263865989912e-18,8.11006112564503e-08,-3.98701067245638e-17,-0.00532351327825514
9000000000,2,0.013716,0.004064,-8.54001281500256e-05,-1.52901450609294e-14,-0.9999806761202,-6.890816339437e-15,-6.63989415434788e-13,2.2108195351547e-14,-3.55629920169609e-17,-0.00281176398051435,-1.83058014636115e-17,5.22242488521673e-08,4.05945333796188e-17,-0.00532387476851628
9000000000,2,0.013716,0.006096,-2.55357606193168e-05,7.13171394436898e-15,-0.999999655993423,6.71264409738337e-15,-9.59604595685778e-13,2.22730897675512e-14,1.42917167442288e-17,-0.002812702769985,-9.3013699664457e-18,2.61258153241285e-08,6.3844462340896e-17,-0.00532350564410775
9000000000,2,0.013716,0.008128,-4.09886372070245e-05,-2.09688311454848e-15,-1.00003136304703,1.83317236913031e-14,-5.86899097680934e-13,1.51446476322121e-14,4.37279893462432e-17,-0.00281239430904914,-1.58557498126924e-17,-3.71118977185233e-08,-4.83886970576834e-17,-0.00532357209892093
9000000000,2,0.018288,0.002032,3.5408148961945e-05,-5.45974633596541e-16,-1.61799100924667,-1.21759862254032e-15,-4.25411939971362e-14,6.19392664770334e-15,-1.05802047018998e-17,-0.00455074934559649,-1.93824183145436e-17,7.79971522835498e-09,-5.0364720551877e-17,0.00203293346728057
9000000000,2,0.018288,0.004064,2.26740154736429e-06,-5.92246439223539e-15,-1.61800258708328,-6.6603803644763e-15,-5.16056580251884e-13,9.47804511745888e-15,-1.23475057035966e-17,-0.00455068113260916,-2.10331758325143e-17,-9.82348502273017e-09,-2.68465313695118e-17,0.0020333755514813
9000000000,2,0.018288,0.006096,9.04982553500857e-06,-2.38755114755072e-15,-1.61800425304277,1.63931641635639e-15,3.26335877447565e-13,1.18538322468447e-14,2.56390266931239e-17,-0.00455065256969427,-3.17071242226772e-17,4.70181783676059e-09,-5.90081044683415e-17,0.00203339259233921
9000000000,2,0.018288,0.008128,-1.54881226819588e-05,7.4404340172729e-15,-1.61799372633169,-6.04944725765482e-15,-9.95980534976022e-13,5.57259112789672e-15,-4.29985716046361e-18,-0.00455059194067699,-2.67042064616541e-17,1.60694011114213e-08,-1.30577389909728e-17,0.00203365889704156
9000000000,3,0.009144,0.004064,1,-0,2.39036535087563e-06,-4.34079240858445e-15,3.6992258376244e-13,4.65386006117041e-15,-1.99894018425728e-18,-3.21274100588968e-09,-3.43178788934475e-18,-0.0034473226147724,-5.3626403377815e-17,-0.00141387749346787
9000000000,3,0.004572,0.002032,0.618005396807048,2.06119286121654e-15,8.51168519530617e-05,-4.46858453169524e-15,6.90929193414463e-14,2.52807465793824e-15,2.66090138877903e-18,6.0226983517529e-08,1.62291603298015e-17,-0.00212992398039415,3.37534751347359e-17,-0.00370184978239725
9000000000,3,0.004572,0.004064,0.999989809111241,-7.506061559417e-15,5.13586068467249e-06,-7.04044686258241e-15,2.97614120850311e-13,2.49220783108181e-15,3.02689017483591e-17,5.42192561994473e-09,-3.25443451885389e-18,-0.00344725291338759,-3.24355645652231e-17,-0.00141399199611873
9000000000,3,0.004572,0.006096,0.999999546183664,3.29317662241706e-15,4.71160564710025e-06,-6.56107629588921e-15,9.21065710347165e-15,4.95975361770247e-15,-1.483622273197e-17,1.13673946156863e-08,2.01078990347955e-17,-0.00344733391465819,3.40560234804656e-17,0.00141383975292712
9000000000,3,0.004572,0.008128,0.618036982444505,1.79886053538837e-15,-2.61155488071265e-05,2.50373674655034e-15,-2.65953754776577e-13,4.0945838452325e-15,5.78715200503937e-20,-8.08250495170178e-08,7.56424116744391e-19,-0.00213056724843308,-1.64480008845455e-17,0.00370155093266445
9000000000,3,0.009144,0.002032,0.618032712284012,-4.88628793405795e-15,1.27004869881859e-06,-3.56071075560271e-15,4.33681460011173e-13,2.9152702176387e-15,-1.81827107743814e-18,4.06310816482729e-09,9.22496876670123e-18,-0.00213052222856655,-7.41969209040013e-17,-0.00370151486643751
9000000000,3,0.009144,0.006096,1.00000369779587,4.54743662382227e-15,-2.09795367427532e-06,7.45909960042448e-15,5.31503486280875e-14,4.35009556700931e-15,3.78093594132793e-17,-1.73357228105133e-08,1.07912683520816e-18,-0.00344732403568864,1.17535285603181e-16,0.00141396597870347
9000000000,3,0.009144,0.008128,0.618032498899697,-1.89761792645706e-15,-7.23271462623322e-07,2.97744740288712e-15,5.5985252834027e-13,3.84485987350925e-15,9.11683719393354e-18,-4.13509330678261e-09,9.11298016473479e-18,-0.00213056600049913,-6.96381590556047e-17,0.0037014907268841
9000000000,3,0.013716,0.002032,0.618037851293878,2.3956210723067e-15,2.37009242921602e-05,-4.80363616353752e-15,1.15397458764845e-12,3.62630946090736e-15,-1.78001175513452e-17,1.29006840162342e-08,-1.32094201006704e-17,-0.00213063229801854,-1.97406553164345e-17,-0.00370146666375037
9000000000,3,0.013716,0.004064,1.0000008692109,-8.17497194778003e-16,-1.63893047181761e-05,4.06043973332217e-15,2.05139551020453e-12,5.86426692304942e-15,1.67215972345829e-18,-1.76901308244038e-08,-1.82083298176008e-17,-0.00344733044537215,4.74883116488697e-17,-0.00141385693658416
9000000000,3,0.013716,0.006096,1.00000098627081,-2.42918614559373e-15,-6.66152407237623e-07,8.84032885478625e-15,2.31458066564461e-12,6.28103229636307e-15,-1.5089490937452e-17,-1.32451442755743e-08,-1.82419578917312e-17,-0.0034473138149435,3.54563295011755e-17,0.00141385711279618
9000000000,3,0.013716,0.008128,0.618036801068796,-2.99606890549702e-15,-2.25630201161126e-05,8.71904027042626e-15,9.94077209058751e-13,4.50682601252257e-15,3.41193436584361e-18,-7.50545363115562e-09,3.8098407664655e-18,-0.00213063054089197,3.61490616371654e-17,0.00370146133668022
9000000000,3,0.018288,0.002032,0.618042036508494,-3.32820343740698e-15,-1.82309961167691e-05,-6.23051894623092e-15,1.01973403706728e-12,3.68907872471735e-15,-2.50981531135862e-18,-7.09250560611203e-08,-4.75275206302356e-18,-0.00213057695766226,7.57125853865658e-18,-0.00370150376590289
9000000000,3,0.018288,0.004064,0.999997518761996,4.03120384456549e-16,1.4835734580543e-05,2.32264354071007e-15,1.48814659680617e-12,6.08677710911887e-15,-5.11768232225439e-18,-2.23400300309823e-08,-1.26838605408331e-17,-0.00344716294376708,-4.0203556025394e-18,-0.00141406230806507
9000000000,3,0.018288,0.006096,0.999992448821696,-4.97742506495816e-15,6.0680338513007e-06,6.91904016300637e-15,1.50616395726858e-12,5.17129412854835e-15,2.29200035243998e-18,4.18366018110907e-09,-2.10472709658717e-17,-0.00344723946917578,-1.71008941198266e-17,0.00141396108022601
9000000000,3,0.018288,0.008128,0.618033791922217,3.30974645707405e-15,1.03477697275695e-05,-1.4221085111425e-14,6.4269839583208e-13,2.25839037366095e-16,-1.59618710739163e-17,2.83885324689649e-08,-1.14702773770834e-17,-0.00213056187691908,2.92112697628195e-17,0.00370150391775085
9000000000,4,0.009144,0.004064,1,0,-0.444536032225218,-6.30137225247964e-07,0.000438820183976303,2.13475305865411e-06,-5.27752374796266e-10,-0.00175718843736357,1.34121786190436e-09,-0.00395277465029642,3.95880738372327e-10,-0.00169335110587021
9000000000,4,0.004572,0.002032,1.61812457647864,8.24405533253268e-11,-0.719445608154784,-1.01986634339032e-06,0.000167614329553287,8.15402771240181e-07,-8.54110727761873e-10,-0.00284335068099854,2.16939386511268e-09,-0.00639414077745407,2.71335941734101e-09,-0.0116061971301216
9000000000,4,0.004572,0.004064,2.61796599512121,-6.12914376637024e-11,-0.274800933690393,-3.89470335155814e-07,0.000271204254087168,1.31934249480479e-06,-3.26225222417098e-10,-0.00108616322977908,3.51112782753491e-09,-0.0103484023548089,1.03645550582416e-09,-0.00443336304087039
9000000000,4,0.004572,0.006096,2.61806775218923,-1.36733646239442e-10,0.274754111448672,3.89389707113104e-07,0.00027120564031312,1.31934923972121e-06,3.26166131107266e-10,0.00108558389449235,3.51144024813394e-09,-0.010349392339427,-1.03635347894498e-09,0.00443292619487855
9000000000,4,0.004572,0.008128,1.618161671655,-8.218368134641e-11,0.719470625775153,1.01948632274087e-06,0.000167613860583888,8.15400521516258e-07,8.53985826740793e-10,0.00284217169603451,2.17033421621654e-09,-0.00639687069289778,-2.71301057594446e-09,0.0116047040675685
9000000000,4,0.009144,0.002032,0.618043233671606,-2.41832813579012e-11,-1.16393007824735,-1.64954961956487e-06,0.000271205664593105,1.31934934335425e-06,-1.38159466468764e-09,-0.0045991813212314,8.28911787408265e-10,-0.00244308952246371,1.03636060180442e-09,-0.00443295671317679
9000000000,4,0.009144,0.006096,1.00004592941016,-3.63488355096384e-11,0.444644302775204,6.29943754380864e-07,0.000438819865333267,2.13475150874608e-06,5.27603451604402e-10,0.00175700875128335,1.34121671489834e-09,-0.00395393669076395,-3.95898446179913e-10,0.00169342655092672
9000000000,4,0.009144,0.008128,0.61801853337898,-2.9384997040064e-11,1.1638772185235,1.64953269455384e-06,0.000271205714835878,1.31934958583413e-06,1.38162010282704e-09,0.0045991607348838,8.28908851832963e-10,-0.00244301913287708,-1.03635399799494e-09,0.00443292842209554
9000000000,4,0.013716,0.002032,-0.618030832543347,4.42823616464642e-11,-1.16397333976501,-1.64946419549851e-06,0.000271205155008491,1.31934687885762e-06,-1.38158083766791e-09,-0.00459887299491675,-8.28987109369266e-10,0.00244340610831244,-1.03639505624096e-09,0.00443310445339376
9000000000,4,0.013716,0.004064,-0.999947115742263,2.83197648020539e-11,-0.444765262836728,-6.29985796274897e-07,0.000438818993335912,2.13474728808435e-06,-5.27479506940861e-10,-0.00175639255873345,-1.34095947849938e-09,0.00395189755600755,-3.95740421647614e-10,0.00169275029445339
9000000000,4,0.013716,0.006096,-0.999974064113862,2.84524870903047e-11,0.444531297577767,6.30081289775735e-07,0.00043882018612556,2.13475308340757e-06,5.27623474562594e-10,0.00175719243877818,-1.3411041776474e-09,0.00395255955334873,3.95875324085053e-10,-0.00169332800201865
9000000000,4,0.013716,0.008128,-0.618032896517932,4.50881568328653e-11,1.16397705425184,1.64946295081335e-06,0.00027120513958792,1.31934679345968e-06,1.38157291118948e-09,0.00459890328051296,-8.28999897341049e-10,0.00244339078879686,1.03637926135124e-09,-0.00443303636137765
9000000000,4,0.018288,0.002032,-1.61823037384534,1.06961140141461e-10,-0.719570837146572,-1.01945368464006e-06,0.000167614117589516,8.15401779744995e-07,-8.53744949750994e-10,-0.00284247612077709,-2.17031239469895e-09,0.00639675391737886,-2.71295529486909e-09,0.0116044685871099
9000000000,4,0.018288,0.004064,-2.6180750982443,1.60372441647572e-10,-0.274867864896187,-3.89509741448682e-07,0.000271205727060754,1.31934968159147e-06,-3.26249566954276e-10,-0.00108589641381679,-3.51141726392052e-09,0.0103493005601017,-1.03652459104791e-09,0.0044336584491559
9000000000,4,0.018288,0.006096,-2.61796272047789,7.66166977225099e-11,0.274799679870954,3.8947702259477e-07,0.000271204319902389,1.3193428197609e-06,3.26165834743836e-10,0.00108611094861219,-3.51114500495038e-09,0.0103482111296563,1.03642366843257e-09,-0.0044332265639502
9000000000,4,0.018288,0.008128,-1.61812011589104,7.45789677112383e-11,0.719445830926887,1.01947949009254e-06,0.000167614540993751,8.1540374784296e-07,8.53885779115714e-10,0.00284228171382182,-2.17021073616216e-09,0.00639645769826366,2.71316915472301e-09,-0.0116053832762856
9000000000,5,0.009144,0.004064,-0.109531738149526,0.00022839759054332,-0.246503769447023,-0.000101501373457803,1,-0,4.0136237895415e-07,0.00043969922184955,9.02741238874428e-07,-0.000195353632724685,3.86738696382089e-07,2.10928703824147e-08
9000000000,5,0.004572,0.002032,-0.177197397033632,0.000369575751302187,-0.398965212059292,-0.000164271760082367,0.381965861333515,3.23494474142417e-13,6.49454546392587e-07,0.000711554488906619,1.46030449757074e-06,-0.00031591454452096,2.65070002183184e-06,1.44569257609052e-07
9000000000,5,0.004572,0.004064,-0.286779085151178,0.00059793712765628,-0.152352150996925,-6.27455840684411e-05,0.618030491816392,2.42634058768084e-14,2.48092371987873e-07,0.000271793039129479,2.36338532455502e-06,-0.0005113470079834,1.0125207826134e-06,5.5222982234223e-08
9000000000,5,0.004572,0.006096,-0.28682558874448,0.000597960374269555,0.152319503272084,6.27348967581487e-05,0.618033652739104,7.29641713120015e-14,-2.47960064671527e-07,-0.000271701931697264,2.36361142100612e-06,-0.000511384993018399,-1.01242100153061e-06,-5.52174641893109e-08
9000000000,5,0.004572,0.008128,-0.177278579351638,0.000369584232656148,0.398784467795213,0.000164277495226685,0.381964794568005,1.38003342711829e-13,-6.49185268795434e-07,-0.000711366873840227,1.46092796574751e-06,-0.000316056022247702,-2.65035909259056e-06,-1.44550591611033e-07
9000000000,5,0.009144,0.002032,-0.0677066899566001,0.000141159586870212,-0.645261989664107,-0.000265761378360932,0.618033705854644,2.15892005028532e-14,1.05050679685106e-06,0.00115097927170189,5.57956847131026e-07,-0.000120716797592423,1.0124279525389e-06,5.52178929041751e-08
9000000000,5,0.009144,0.006096,-0.109553805889916,0.000228408082685259,0.246401273389545,0.00010152611155421,0.999999274533357,4.94590569000047e-14,-4.01321337000935e-07,-0.000439609767629648,9.03006648038949e-07,-0.000195225829647255,-3.86755968282964e-07,-2.10937888321078e-08
