#frequency,mode,x,y,Ex_re,Ex_im,Ey_re,Ey_im,Ez_re,Ez_im,Hx_re,Hx_im,Hy_re,Hy_im,Hz_re,Hz_im
9e+09,1,0.009,0.003,-0.0488203306696418,-3.10525666331781e-13,1,0,3.96856197373526e-13,0.340835767089261,-0.00388502660002789,-1.97683109249677e-14,-9.0387143170221e-10,-1.83484761825372e-14,-5.98639688405127e-16,0.000556449683793878
9000000000,1,0.004,0.002,-0.172972173551725,-1.29134136244951e-13,0.649220859393971,-1.84791284410139e-13,-5.35343046132203e-15,0.138969373551621,-0.00252222997560284,1.07028701510747e-14,4.3165487783994e-10,2.15372137350509e-14,-1.39245811938734e-17,0.00313938968467446
9000000000,1,0.004,0.004,-0.323820422304637,-2.0781453482132e-13,0.521818158989977,-2.36386035895165e-13,-2.43154788446498e-14,0.260162684158698,-0.00202728592094182,6.1204334535604e-15,-1.35398266898101e-09,8.7672255186656e-15,1.18136047277797e-16,0.0025233270963325
9000000000,1,0.004,0.005,-0.312001428854972,-4.05210179768446e-13,1.13046889342989,-6.99070719079755e-13,-1.08324350356885e-13,0.250666539318806,-0.00179261342751954,1.49995382047679e-14,7.72247261537349e-11,-1.17013903863685e-14,7.24783685138546e-16,0.00223124002897376
9000000000,1,0.004,0.007,-0.150175130834579,-6.87513305481338e-14,1.01397237055898,-4.72306214796018e-13,-2.04467613565209e-13,0.120654305228899,-0.00160788479920787,2.53031992342138e-15,1.4735523040081e-09,9.48179395405644e-15,1.87034311964655e-15,0.00200130517573235
9000000000,1,0.011,0.002,0.0334484232331692,1.00762494503367e-13,1.09091941933152,5.23022518048315e-13,2.30099079212948e-13,0.233517792191244,-0.00423825033971542,-9.46116321063997e-15,-2.29684133691058e-09,1.80881589139018e-14,-2.7604852614159e-16,-0.000607041999485056
9000000000,1,0.011,0.004,0.0626151475428108,-1.28824708692325e-13,0.876839439242941,-8.7872959928268e-14,8.77141870878607e-13,0.437165901019897,-0.00340653964232777,-5.80366335757689e-15,-1.09071940839056e-10,-8.98594320571814e-15,6.14807151898531e-16,-0.000487917910016099
9000000000,1,0.011,0.005,0.0603293231782565,1.92122898645246e-14,1.89959177202422,-9.04951837566805e-14,1.41349760275806e-13,0.421209002808664,-0.00301223010281532,4.34170928836836e-16,6.83684026673873e-10,1.10889904636662e-14,-1.21921260025759e-17,-0.000431441020249362
9000000000,1,0.011,0.007,0.0290398624011605,6.76969403474201e-15,1.70383637092093,-1.16776335674102e-13,1.58878815321527e-13,0.20274225288944,-0.00270181783272393,-9.93527442532444e-15,1.06261921911063e-09,7.68920102297147e-15,-2.67959779789642e-16,-0.000386980579335469
9000000000,1,0.016,0.002,0.172973072245713,-3.43665937081899e-14,0.649219183969118,-1.73834260388869e-13,-4.60044205918677e-13,0.138969303521677,-0.00252222856477164,-3.02243361818636e-14,8.56971648515351e-10,-1.85130685338401e-14,1.1327183943617e-15,-0.00313936822138519
9000000000,1,0.016,0.004,0.323819033140479,9.49253704372727e-14,0.521819259740974,5.96308593170556e-14,5.06192474075286e-13,0.260162663182009,-0.00202729353579326,-6.07034213227405e-15,-7.13695267578166e-11,4.96345089170682e-15,9.59753142148317e-16,-0.00252333683225325
9000000000,1,0.016,0.005,0.312001458796736,5.79579742246149e-14,1.13046885539477,-3.80940383618587e-13,-8.52028041411205e-13,0.250666539642804,-0.00179261349287954,-4.79173277273128e-15,-1.5081236897136e-10,1.47613082481036e-14,1.05854862346135e-15,-0.00223124101011889
9000000000,1,0.016,0.007,0.150175136499897,1.35707560215455e-13,1.01397238650991,-2.68712333869345e-13,2.05115327817576e-13,0.120654305150363,-0.00160788477401314,-5.76295166626875e-15,-1.42154106529213e-09,-1.08227582842467e-14,1.23037974508403e-15,-0.00200130520641243
9000000000,2,0.009,0.003,1,-0,0.527127615582088,8.39270055354788e-13,0.216594981323235,-1.21679293145862e-12,1.69060332026705e-14,0.0024688563742865,3.91875482508919e-16,9.95205600995819e-08,1.67584618218009e-14,-0.0113990302782665
9000000000,2,0.004,0.002,-0.222593945906617,-7.97629842367634e-13,1.76984433118761,2.27971906233993e-12,0.456717975026057,-3.06873846016798e-13,-4.24432151811443e-15,0.00828904427803785,-7.22892518399522e-15,3.85551158166035e-08,-9.38607449541636e-15,0.00404073706943071
9000000000,2,0.004,0.004,-0.416799822177044,-5.18619496336218e-13,1.42251829149548,1.98733352231059e-12,0.855013877842012,-3.02455238278687e-14,-6.77951756563083e-15,0.00666272908844529,-8.23253537322599e-15,-8.06467847113451e-09,-5.68120028268211e-16,0.00324775350820663
9000000000,2,0.004,0.005,-0.401615084569702,1.39918134947211e-13,3.08178985047078,3.91108045185656e-12,0.823805254652352,-1.19897572118177e-13,-1.18960699305326e-14,0.00589138693352522,2.25357665569591e-15,1.37481550847748e-08,2.74204943439793e-15,0.00287183013550914
9000000000,2,0.004,0.007,-0.19319485496371,2.56012414106099e-13,2.76417572618448,3.05267390238441e-12,0.396525558202909,-7.79876458893949e-14,-1.34182535244178e-14,0.00528417049704852,-8.33240254053097e-15,-3.88965399426326e-08,-2.00555527879109e-15,0.00257581320059394
9000000000,2,0.011,0.002,0.685136913905219,-2.25991591081249e-13,-0.575054385018912,2.20776585161949e-13,-0.148396362035038,-1.79004841835348e-12,1.24661325853404e-14,-0.00269329520992488,-8.06348545187174e-15,7.73111078078326e-08,1.32685296419691e-14,-0.0124355063092994
9000000000,2,0.011,0.004,1.28272130613809,1.20777218256535e-12,-0.462205984169715,-6.78989199686005e-13,-0.277811246208239,-1.55887392175672e-12,1.10959994300428e-15,-0.00216475427090141,-5.16670072134566e-15,2.77032731322329e-08,1.77836338255213e-14,-0.00999535909345029
9000000000,2,0.011,0.005,1.23589388396036,1.4793998628353e-12,-1.00133700750916,-2.42733347516657e-12,-0.267671007065719,-1.74781299210072e-12,1.0893218502273e-14,-0.00191423152567168,-6.41868776275518e-15,2.85757508228198e-08,1.74230949380554e-14,-0.00883844077817906
9000000000,2,0.011,0.007,0.594883814091288,1.15016949556557e-12,-0.898135489637508,-2.69710900231181e-12,-0.128839913865954,-1.13675348633383e-12,4.08418132909216e-15,-0.0017169597231291,-2.12119361077404e-15,6.17068473352003e-09,7.2685495156286e-15,-0.00792779484367061
9000000000,2,0.016,0.002,-0.222654406384104,6.31741527761568e-14,-1.76982953167218,-3.78756205903952e-13,-0.45671825120442,-1.30273881872302e-12,2.2448919970633e-14,-0.00828896368922477,1.10413144346378e-14,-3.09911895833489e-08,1.28329602369973e-15,0.0040404550894127
9000000000,2,0.016,0.004,-0.416768316317087,7.73663676077467e-13,-1.42252714087915,-9.13321174839709e-13,-0.855014335454696,-1.76689661073643e-12,-8.44292299407629e-16,-0.00666285338216416,-4.35778879475664e-15,4.13047364708734e-09,1.618750569868e-15,0.00324785440978167
9000000000,2,0.016,0.005,-0.401615117664148,1.29051351783928e-12,-3.08178895866373,-3.74816667911435e-12,-0.823805308680812,-1.98464798362362e-12,6.81396780021015e-15,-0.00589138843625889,-3.59704313896878e-15,1.44649061740916e-08,6.10509430037169e-17,0.00287184101946558
9000000000,2,0.016,0.007,-0.193195417567903,1.30769220639191e-12,-2.76417624910577,-3.16951239090422e-12,-0.396525520930631,-9.39858445220642e-13,1.6393331410679e-14,-0.00528417155965351,1.7196916883557e-14,-3.83714246467976e-08,-1.14341316113882e-14,0.0025758136117832
9000000000,3,0.009,0.003,1,0,1.47814930391206e-07,7.56221365320143e-13,-6.20356013059593e-11,-1.14274087935578e-12,-1.32551035640937e-16,1.23138724488626e-08,5.52423815897091e-16,-0.00342143533208801,3.67989750877704e-15,-0.00242554292896592
9000000000,3,0.004,0.002,0.759556020990789,-4.5480590229147e-13,7.29742982749463e-06,3.6215104834203e-13,2.39768798973455e-11,-2.12526808621173e-13,-2.05009726319666e-15,-6.69691031263989e-09,-5.44800443382338e-15,-0.00259875312821773,-5.37516317359249e-15,-0.00425895078369575
9000000000,3,0.004,0.004,1.0959324077212,-5.09406356730007e-13,-1.67923080146077e-06,7.2499382186389e-14,4.27592600123351e-10,-5.41439687988007e-13,-2.79435004285138e-15,-7.55077543520074e-09,-6.22643355523468e-15,-0.00374959426553351,-7.31320622747439e-16,-0.000241531961049613
9000000000,3,0.004,0.005,1.04038510074695,-5.33369164201231e-13,6.64148514767366e-07,-5.39265076633652e-13,4.22609957055433e-10,-5.03656704214719e-13,-3.42853663970588e-16,3.06902268449748e-09,-3.15311212480226e-15,-0.00355955292583793,8.5405629512197e-16,0.0015932582153286
9000000000,3,0.004,0.007,0.637083326792449,-8.16936004027614e-14,-2.59175707166584e-06,-5.2664967491398e-13,1.96672717331556e-11,-4.08950841362466e-13,-1.20204381896512e-15,2.45878435045242e-09,-1.32732757288303e-15,-0.0021797142461404,2.13731272147817e-15,0.00390186698144384
9000000000,3,0.011,0.002,0.759552482976143,-3.11701000596375e-13,-2.14300054069827e-07,6.1393966650435e-13,2.03125663867947e-11,-1.15889728326871e-12,3.53883921060838e-16,-1.31737068767934e-08,-3.11775330462646e-15,-0.00259867431764004,3.77291013299324e-15,-0.00425883210496585
9000000000,3,0.011,0.004,1.09592114885173,1.87769964015993e-13,2.64769439356703e-08,-2.34676562590017e-13,-7.08908039805423e-10,-1.56350374333249e-12,2.1462155319127e-15,-2.54268451796903e-11,6.05591219557813e-16,-0.00374956923348348,4.99938417300854e-15,-0.000241535556359367
9000000000,3,0.011,0.005,1.04038222734098,3.31036157445899e-13,5.37667436347202e-07,-1.15194496436796e-12,-3.3125407893329e-10,-1.50287076547886e-12,-2.60173574942532e-15,2.9845747981119e-09,-2.43642798230539e-16,-0.00355953340070698,5.47047887072925e-15,0.0015932544028206
9000000000,3,0.011,0.007,0.637081572870885,2.45963426331261e-13,4.53649245345955e-07,-1.94195412160174e-12,2.31705663029578e-11,-7.47887277807461e-13,1.87376132961369e-15,-3.41162618595907e-09,-2.48307344682776e-15,-0.00217971463578345,4.47245242025381e-15,0.00390187065925529
9000000000,3,0.016,0.002,0.759555368474944,-2.94795946117682e-13,-1.20721566090414e-05,4.64412485345913e-14,-1.06583019871949e-10,-8.68276520506645e-13,6.94319855448218e-15,-2.44141776153169e-08,4.5152215798718e-15,-0.0025986894638649,-1.57003127498348e-15,-0.0042588915219305
9000000000,3,0.016,0.004,1.09593830407132,-3.20601878556688e-13,-5.62899167911804e-07,-4.05127629962123e-13,2.3209593181658e-10,-9.90628994080252e-13,2.27184741394778e-15,-1.31370719657671e-08,4.99548402941854e-15,-0.00374966287478552,-1.06012322950895e-15,-0.000241553236987293
9000000000,3,0.016,0.005,1.04038501663533,-3.87205191146299e-13,-6.40284367754203e-07,-1.46675504432339e-12,1.83577797330817e-09,-1.27261330581705e-12,4.32697310930351e-15,-2.39366155306133e-09,5.50816473057509e-15,-0.00355955322159295,-2.07576414512893e-15,0.00159325682681906
9000000000,3,0.016,0.007,0.637083292936839,3.16646679807003e-14,2.45674932922901e-06,-1.87523385675959e-12,-9.24660598378364e-11,-4.70551634878581e-13,-1.91691362691598e-15,-2.37762016008092e-09,-7.26644389168517e-16,-0.00217971349931951,-5.31423945080416e-15,0.00390186644801413
9000000000,4,0.009,0.003,-0.0889031199824021,-3.75004221456544e-13,-0.243646567319884,-3.8403382285424e-13,1,-2.62517132774825e-28,2.83335385399762e-14,0.00155952148000368,2.16777910715968e-14,3.35313379812159e-09,2.68875794088995e-15,0.000138652666056212
9000000000,4,0.004,0.002,-0.347414132889493,2.18983408060391e-12,-0.246308634462509,-5.12394977042777e-13,0.449668874148924,-8.18986797136448e-13,-9.10262384056375e-15,0.00157649575674514,-3.3602358690692e-14,-2.04786564972535e-10,1.32569739893811e-14,0.00121803894525583
9000000000,4,0.004,0.004,-0.508197408311901,3.21503630096098e-12,-0.0235081892371544,4.59554076786303e-14,0.657744904676769,-1.08549106340927e-12,4.3097762779151e-15,0.000150454206832529,9.65272735123488e-15,1.63332608223844e-08,-8.62536277037139e-16,0.000116257914273784
9000000000,4,0.004,0.005,-0.482912364788908,2.85796281407185e-12,0.158367175981536,5.04675585946198e-13,0.625023138239295,-1.13609294194615e-12,-2.20075133655033e-14,-0.000413729531799019,1.77846471366503e-14,2.78805357850829e-09,-7.21884386516327e-15,-0.000319659924098719
9000000000,4,0.004,0.007,-0.292019307781797,2.07227572298398e-12,0.356521959211618,1.36550106042566e-12,0.377967483817157,-1.00082108433396e-12,-2.84390599360583e-15,-0.000931405078182143,-4.08288965358012e-15,-5.59060592772057e-10,-1.63037719773087e-14,-0.000719628491345285
9000000000,4,0.011,0.002,0.0671746965432631,-7.77862014445814e-13,-0.413872080386761,-5.46502324291716e-13,0.755598162800129,-4.04138150258678e-13,1.13883078905647e-15,0.00264903896965034,-3.68416362855635e-14,1.04525756211518e-08,-5.73414108674982e-15,-0.000235517220897541
9000000000,4,0.011,0.004,0.0982635053539846,-1.53773767469478e-12,-0.039502228461354,-1.90657776189392e-13,1.10524478744211,3.93420924430276e-13,5.34498311380763e-15,0.00025283933498271,1.1409896387654e-14,-1.23638279368235e-09,1.87378745821705e-15,-2.24788790494059e-05
9000000000,4,0.011,0.005,0.0933773226242189,-1.27605445083176e-12,0.266109560173141,3.34000958496345e-13,1.05026122052187,-9.17964899050693e-14,-1.39852131965321e-14,-0.000695213656777773,-1.99963726364903e-14,4.16837812898634e-10,4.62933362869727e-15,6.18053283236919e-05
9000000000,4,0.011,0.007,0.0564662187065051,-8.08598238901313e-13,0.599076633086779,1.05545172389814e-12,0.635118188481991,-1.16579891144879e-13,1.27476644516973e-14,-0.00156510132727688,-8.08207084407183e-15,-8.48773005477548e-10,8.96630171629784e-15,0.000139149783775849
9000000000,4,0.016,0.002,0.347420141917126,-2.70626124864685e-12,-0.246306764731947,1.46399291476784e-13,0.449665313101084,-1.41629785253565e-12,3.52442039335765e-14,0.00157651423697602,1.295544897078e-14,1.16654340177414e-08,-1.73495526693155e-14,-0.00121797793629977
9000000000,4,0.016,0.004,0.508208067770439,-3.75442714969946e-12,-0.0235124996319855,2.13356337781017e-13,0.657744411084104,-2.27207327813101e-13,2.27809826205468e-14,0.000150493497905394,-1.49700271278435e-14,-1.76613177501016e-08,-1.31600542285127e-15,-0.000116269130543609
9000000000,4,0.016,0.005,0.482912099543741,-3.69640568644721e-12,0.158367088771466,-1.01286318627613e-13,0.625023141384767,-2.03917459791459e-12,-3.09329568312571e-15,-0.00041373024764588,-3.82313053293356e-14,-2.01729598672832e-09,5.8801896806977e-15,0.000319657929192736
9000000000,4,0.016,0.007,0.292019242153431,-2.28792706326849e-12,0.356521639688208,2.3113679011556e-13,0.377967444923653,-3.65129318305704e-13,-9.91659538013885e-15,-0.000931404576645364,3.54794410069977e-15,2.91423961500351e-10,1.39740536774503e-14,0.0007196285170292
9000000000,5,0.009,0.003,-0.291849892139746,-4.96088845533714e-12,4.09177585410757e-06,4.68299436715148e-12,1,0,6.9991210215001e-15,0.0024256524649968,3.50016761385756e-16,0.000838765212190428,-4.96012465677466e-15,0.000707932164603044
9000000000,5,0.004,0.002,-1.14644679862167,-1.44314788061073e-11,-3.97636459644418e-06,5.24185169114704e-12,0.452026106879799,-5.92666785266979e-13,-3.1078089168056e-14,0.00253460861134827,-9.61553986575805e-14,0.00329467871541601,-9.65683569637191e-14,0.00642844587495097
9000000000,5,0.004,0.004,-1.65420661035516,-2.05949636909346e-11,-9.81356716579282e-07,1.06692030557685e-12,0.652203341185496,-7.76645225972583e-13,-1.71704472782038e-15,0.000143718677295943,-8.93157501041193e-14,0.00475385848411789,-7.63817405483459e-15,0.000364585045227994
9000000000,5,0.004,0.005,-1.57035953277836,-1.97828954286849e-11,3.80866070536269e-06,-1.38844186959262e-12,0.619147662846264,-8.4805843925603e-13,-1.34582612304199e-14,-0.000948164562456129,-7.41047745087849e-14,0.00451287987661926,3.44483163193411e-14,-0.00240487167348015
9000000000,5,0.004,0.007,-0.961594158848196,-1.1706279118115e-11,5.51282413176812e-08,-4.37831581281961e-12,0.379138980412675,-6.14335110538255e-13,2.01104384196479e-14,-0.00232207275754889,-6.16822780866479e-14,0.00276342614043017,8.75367548152215e-14,-0.00588946106510442
9000000000,5,0.011,0.002,0.221674898963495,2.08316803149783e-12,-1.3960021900035e-05,7.61790259084349e-12,0.759558774742182,-2.89989025965655e-13,-2.63291700269021e-14,0.00425885229806014,-2.11644179767014e-14,-0.000637056810436019,1.4881199843314e-14,-0.00124298654140904
9000000000,5,0.011,0.004,0.319857153427178,2.65417822762214e-12,1.49409998773051e-06,3.50486331328157e-13,1.09593298345391,2.45658602343836e-14,5.7790004729116e-15,0.000241539070849696,2.42647452606414e-14,-0.000919194314886177,5.34092748442827e-15,-7.04904653130004e-05
9000000000,5,0.011,0.005,0.303649891815502,2.72187871475146e-12,-5.62556126686251e-07,-5.5387441852128e-12,1.04038832208474,-5.30494731177703e-13,9.32711124386004e-15,-0.00159325401025682,-4.65274401715389e-15,-0.000872624164720905,-3.1839459924728e-16,0.00046497159932536
9000000000,5,0.011,0.007,0.18593947253191,1.49315286293587e-12,-5.15276061680874e-06,-1.15354499532204e-11,0.637086558244974,-2.92799783630672e-13,5.91320112910039e-14,-0.00390190292862268,1.40049706596204e-15,-0.000534332378748819,-5.82618963313169e-15,0.00113880624653235
9000000000,5,0.016,0.002,1.1464633610573,1.33967972499216e-11,-8.58636927024332e-06,5.57283452434834e-12,0.45202225881188,-1.22614334946282e-12,1.0232861012434e-14,0.00253459579187164,7.93795097495922e-14,-0.00329461655999055,8.5762749874893e-14,-0.00642810395459274
9000000000,5,0.016,0.004,1.65422669516349,1.92370150725186e-11,-6.08272180641977e-06,9.62643264042322e-13,0.652202829983655,-4.77454211722749e-13,1.58537396519695e-14,0.000143771629294585,8.11408891056209e-14,-0.00475400074866785,8.63031824446237e-16,-0.000364642558771672
9000000000,5,0.016,0.005,1.5703588454794,1.81291876561119e-11,3.55403711753801e-06,-3.13273763263829e-12,0.619147663515886,-2.03623738650573e-12,8.08796899517341e-15,-0.000948164849975316,5.66158643379006e-14,-0.00451287726292234,-3.96591195963213e-14,0.00240486133573309
9000000000,5,0.016,0.007,0.961594162562565,1.12840299229543e-11,-2.89097300726053e-07,-7.17058956127762e-12,0.379138938347123,-4.56084099666401e-13,2.35264608427104e-14,-0.00232206960050248,6.17556094263606e-14,-0.00276342503315998,-9.36710598813851e-14,0.00588946103937556
10000000000,1,0.009,0.003,-0.0471174853470965,1.80663632712622e-16,1,0,-6.95796054769173e-16,0.399312468720847,-0.00415705869768732,-5.81963951976797e-18,-1.24770222952019e-09,-4.72931273155849e-18,1.7787574498735e-17,0.000490487694586946
10000000000,1,0.004,0.002,-0.167824047227959,-1.06968473807244e-15,0.661114617790991,2.7898484442319e-15,-1.67009038227707e-16,0.163676532709808,-0.00274827742923035,-3.69504713362356e-18,7.17225390210713e-10,1.12644956635368e-17,-2.99788393437757e-17,0.0028179390327157
10000000000,1,0.004,0.004,-0.31014512009065,-1.2593134220849e-15,0.506281012358616,-9.22708342616992e-16,-8.23012643677558e-16,0.302479294285981,-0.00210464770543404,1.10499132874347e-18,-2.1495268756824e-09,4.70195736031439e-18,-6.32438780503201e-18,0.00215798452219398
10000000000,1,0.004,0.005,-0.296216519639927,-3.15703672021067e-15,1.06237059970648,6.377815793013e-15,-7.77680750316852e-16,0.288894084205493,-0.00180258545869487,-4.3152837386766e-18,2.97768296646171e-10,-9.34377651717959e-18,8.61830520510336e-18,0.00184827285993755
10000000000,1,0.004,0.007,-0.140940935505552,-6.21977604992851e-16,0.923744616725897,2.07503535058208e-15,-1.38689164399172e-16,0.137458155665298,-0.00156737485971739,-6.25422762144793e-18,1.68788025014303e-09,3.60020260900654e-18,8.38483980310715e-18,0.00160709386142499
10000000000,1,0.011,0.002,0.0324530666865254,5.65306070231653e-16,1.11090423016585,3.72571696702788e-15,-7.37473825369485e-16,0.275034516042972,-0.00461809268090691,-1.08783988105946e-17,-3.08928522717646e-09,1.29262490189204e-17,3.74670655327129e-17,-0.000544884998023019
10000000000,1,0.011,0.004,0.0599709316522385,1.78935420814533e-15,0.850731263831526,2.99294687628978e-15,-1.19119991814283e-15,0.508272854116067,-0.00353653167811969,-1.3623058640172e-17,-9.32844645936059e-11,-5.77912631354682e-19,3.81000867783237e-18,-0.000417273984720306
10000000000,1,0.011,0.005,0.0572769198641266,2.49315069017966e-15,1.78516323161245,8.0100613119816e-15,-1.4374710860783e-15,0.485444880874017,-0.00302898849615911,-7.34760680095358e-18,6.9425671468264e-10,7.78310982868349e-18,3.03969392801363e-18,-0.00035738913370456
