#frequency,mode,x,y,Ex_re,Ex_im,Ey_re,Ey_im,Ez_re,Ez_im,Hx_re,Hx_im,Hy_re,Hy_im,Hz_re,Hz_im
9e+09,1,0.009,0.003,-0.0488175761677632,-2.33502478696343e-13,1,0,1.6719382015318e-13,0.340835624492595,-0.00388503036044421,-1.52410840188511e-15,-2.9623968031116e-10,-1.69521426968346e-14,-2.53309355931365e-16,0.000556451151267235
9000000000,1,0.004,0.002,-0.172972147304281,4.38290086018924e-14,0.649220621189614,-2.05279832410357e-13,-1.04373198668085e-13,0.138969330851713,-0.0025222291346265,-1.89549431933505e-14,2.37337080628279e-10,-4.26020676947499e-15,-7.58047685975532e-16,0.00313938875134342
9000000000,1,0.004,0.004,-0.323820327868617,3.25910311663386e-15,0.521818022380753,-1.43518323440859e-13,2.70959689501046e-13,0.260162613096083,-0.00202728535762614,-2.14119643032541e-15,-1.34237547893783e-09,-1.92797896287461e-15,-4.19036991687121e-16,0.0025233265162543
9000000000,1,0.004,0.005,-0.312001343237736,-9.23030547988798e-14,1.13046858281419,-1.78543741475833e-13,1.88377100072093e-13,0.250666470261521,-0.00179261294153792,-9.38357542780989e-16,7.13743379504112e-11,-8.92759429480208e-16,3.39026437411168e-17,0.00223123942672896
9000000000,1,0.004,0.007,-0.150175089470303,-1.92709901537652e-13,1.01397209121545,-3.50155691377784e-14,-7.79481703751767e-14,0.120654271992146,-0.001607884355737,-7.34012986495436e-15,1.47376361000297e-09,-4.37134413180574e-16,1.95775136997724e-17,0.00200130462546316
9000000000,1,0.011,0.002,0.0334461884717386,-1.11825227996002e-13,1.09092131880243,-1.88995985159045e-13,1.2828287376137e-14,0.233517700793257,-0.00423827306492623,1.24377624403343e-14,-4.7887886630473e-09,-2.30667864311607e-14,-8.50961964498415e-16,-0.000607041414251425
9000000000,1,0.011,0.004,0.0626151434293817,-1.26808626282133e-13,0.876839384981279,-1.05559184369613e-13,2.15149677404958e-13,0.437165779682655,-0.00340654684748197,-3.61416263904258e-15,-3.55879568785727e-10,3.83606653938951e-15,-2.21325466606403e-16,-0.000487920495776248
9000000000,1,0.011,0.005,0.0603293102218223,-1.09673967887684e-13,1.89959128025552,1.98972730845873e-13,-1.26609418086726e-13,0.421208889082046,-0.00301222969725025,-4.34523769239533e-15,1.67147340569898e-10,1.55687304976936e-15,-1.35603106414001e-18,-0.000431440974628779
9000000000,1,0.011,0.007,0.0290398543099382,-1.58328331390228e-13,1.70383590196285,6.85177215219529e-14,2.70583733625036e-13,0.202742197035473,-0.00270181709095685,-9.40903362562772e-15,1.06181601093147e-09,9.66744846461793e-16,-5.4083414005223e-16,-0.000386980472553185
9000000000,1,0.016,0.002,0.172972147379622,1.78229765268312e-13,0.649220621278585,1.45064890259085e-13,-2.93883888304283e-13,0.138969330851487,-0.0025222291359611,-1.69288770850776e-15,-2.38824503510175e-10,-3.27842604336808e-15,-8.97233037193106e-17,-0.00313938874934993
9000000000,1,0.016,0.004,0.323820328158961,1.3938411197297e-13,0.521818022177921,1.21770674719899e-13,3.06894539174269e-14,0.260162613099696,-0.00202728535686035,-8.81659209320727e-15,1.3432439878054e-09,1.18267720051794e-14,-2.43938878959718e-16,-0.00252332651211626
9000000000,1,0.016,0.005,0.312001384727891,9.06693456919961e-14,1.13046854936063,3.15372156555268e-13,1.69722611812338e-13,0.250666470944305,-0.00179261292385027,1.39154063665397e-15,-6.68137872305933e-11,4.73658000240014e-15,-2.15892981005469e-16,-0.00223123942464122
9000000000,1,0.016,0.007,0.150175095081656,9.13353319371012e-14,1.01397210716274,3.99341066196285e-13,-2.84726510595907e-14,0.12065427189519,-0.00160788432881206,-5.32967404481142e-15,-1.42286416048094e-09,-7.97448119059421e-15,5.88091079340142e-16,-0.00200130467530844
9000000000,2,0.009,0.003,1,-3.06068871423474e-28,0.527079379287566,-1.16433760121017e-12,0.216576000736619,-2.29623759722349e-12,5.5862994262775e-16,0.00246864742634083,7.90436803913292e-15,-1.60175584266938e-08,-1.84694609507656e-14,-0.011398536487866
9000000000,2,0.004,0.002,-0.222574946674508,3.30601144599319e-12,1.76969075070963,-3.6586325897085e-12,0.456678349170975,-1.62109244610444e-12,1.98076469128502e-14,0.00828832685065061,1.73525149013236e-15,4.01983111022146e-08,2.34735245064596e-14,0.00404038327249094
9000000000,2,0.004,0.004,-0.416763779941837,4.88115440272099e-12,1.42239548215123,-3.2416059053762e-12,0.854939869631463,-2.21375848496412e-12,1.83523326322022e-14,0.0066621523635817,4.15302371024322e-15,-7.93667280852288e-09,8.78333917170251e-15,0.00324747313700122
9000000000,2,0.004,0.005,-0.401580305328999,4.63000942428569e-12,3.08152298690662,-6.12161298145955e-12,0.823733917290299,-2.22362008259796e-12,1.36481530041609e-14,0.00589087681796493,7.74754984165483e-15,1.37859694354183e-08,1.71376654651581e-15,0.00287158163432931
9000000000,2,0.004,0.007,-0.193178125255807,2.88435885688845e-12,2.76393636171993,-5.70226156316418e-12,0.396491220996786,-9.65665683305048e-13,1.33005438026372e-14,0.00528371290956587,1.19969066222714e-15,-3.88932935534263e-08,-7.78909313100207e-15,0.00257559014164202
9000000000,2,0.011,0.002,0.685126476205776,-6.13906965978368e-13,-0.575009416127391,1.45705983861326e-12,-0.148383626426253,-5.42552132107237e-13,-7.81540441176492e-16,-0.0026930648337229,7.05810420125879e-17,-2.67827432560758e-08,-1.92535155430153e-14,-0.0124348519025856
9000000000,2,0.011,0.004,1.28261117759328,-1.42867245615284e-12,-0.4621675517933,8.00208410905531e-13,-0.277786729614249,-8.98747976189521e-13,-1.28232833148719e-14,-0.00216466777574373,1.57063454469161e-14,7.24638755848695e-09,-2.05896786677343e-14,-0.00999458093279838
9000000000,2,0.011,0.005,1.23578671607504,-1.15813306938401e-12,-1.0012509901803,1.43305003690435e-12,-0.267647916265888,-9.43559770529812e-13,-1.02681552493109e-14,-0.00191406787865097,1.10843348942186e-14,1.97179454607457e-08,-1.91711078361628e-14,-0.00883766761901731
9000000000,2,0.011,0.007,0.594832300740486,-3.03752901633162e-13,-0.898057719245021,1.2562825767044e-12,-0.128828757361013,-7.19557295346861e-13,1.05611653136821e-16,-0.00171681106125457,9.22945293543126e-15,6.16685059333207e-09,-2.12880523612228e-14,-0.00792710856690776
9000000000,2,0.016,0.002,-0.222574946841201,1.08520026184125e-12,-1.76969075072573,3.98417437303465e-12,-0.456678349195178,5.06819352936418e-13,-1.07775092255312e-14,-0.00828832686411117,7.93722929556258e-15,4.01823882553112e-08,1.25864785946518e-14,0.00404038330124375
9000000000,2,0.016,0.004,-0.416763782875637,1.72942873896859e-12,-1.42239547440984,2.75654124880841e-12,-0.85493986977734,1.35783855937613e-12,-1.8751549048235e-14,-0.00666215234116774,1.18588875825908e-14,-7.9221932656643e-09,7.91666357616455e-15,0.00324747312429473
9000000000,2,0.016,0.005,-0.401580443730962,1.85486108404292e-12,-3.08152207224182,6.16678761335805e-12,-0.823733952381137,1.27109901334026e-12,-1.81898514703165e-14,-0.00589087652107531,1.19602932168351e-14,1.35902478127318e-08,2.80864229942257e-15,0.00287158180935401
9000000000,2,0.016,0.007,-0.193178690131706,9.40156659147473e-13,-2.76393688505414,5.45512566999626e-12,-0.396491183423005,4.88952188471466e-13,-1.09315411727201e-14,-0.00528371396375326,5.05587591952666e-16,-3.83833397734545e-08,-8.34129387836725e-16,0.00257559072814209
9000000000,3,0.009,0.003,1,0,4.36359818893452e-06,-1.19123874066027e-13,-9.0474446352522e-11,-3.48017523696313e-13,-5.65720713483153e-15,1.24113180033915e-08,-4.95625701543407e-16,-0.00342143986784607,2.10385631312645e-15,-0.00242555113641519
9000000000,3,0.004,0.002,0.759558421354051,-1.82640484204058e-13,6.91942475894126e-06,7.01389646294934e-13,1.27497347511353e-11,-2.49847370947406e-13,-5.62106184887491e-15,-6.45509767333217e-09,-4.45357687009646e-15,-0.00259875958549453,-1.7981860714075e-15,-0.00425896341837084
9000000000,3,0.004,0.004,1.09593618876097,-4.24184156609437e-13,-1.82931535991105e-06,4.39518886950997e-13,5.15461507579263e-10,-3.13872538042863e-13,-8.18933507347323e-15,-8.13868716784033e-09,-5.51222546311882e-15,-0.00374960771493268,-1.99615319951161e-15,-0.000241533208535908
9000000000,3,0.004,0.005,1.04038850265235,-5.14156037272003e-13,6.67571696596322e-07,7.32083505530142e-13,5.20469786479687e-10,-2.11567288484555e-13,-4.9088348362913e-15,3.06348993371595e-09,1.13432993873681e-15,-0.00355956456799699,-7.28252103478789e-16,0.00159326340701294
9000000000,3,0.004,0.007,0.637085411688141,-4.16566961471097e-13,-2.59183360604156e-06,5.91714551556905e-13,9.94714315681757e-12,-1.37999909831582e-13,-6.36695052916952e-15,2.45867141116909e-09,-6.50539959885484e-16,-0.00217972137985681,2.53375205853541e-15,0.00390187975007256
9000000000,3,0.011,0.002,0.759557117864945,-2.26528927255659e-13,-6.18548109089152e-06,-2.00972728552383e-13,2.1544240465438e-11,-4.5384930672847e-13,-1.01911536711772e-15,-7.44449002213634e-09,-3.35150256098354e-15,-0.00259880583042956,1.03448715884554e-15,-0.00425902880183765
9000000000,3,0.011,0.004,1.09592982254386,-1.88461958524422e-13,2.4911072656223e-06,-3.16718143712526e-13,-1.29832166536872e-09,-5.67808475584403e-13,-2.3440041293323e-15,6.06342015922033e-09,-5.26403041461777e-15,-0.0037495626483816,2.18775926998308e-15,-0.000241533847726977
9000000000,3,0.011,0.005,1.04038556004172,-3.91245142270815e-14,5.30482470750522e-07,-7.16640100112528e-13,-2.02985943423415e-09,-3.9848084409466e-13,1.06512699542432e-15,2.21060209046784e-09,-7.39968870043419e-15,-0.00355954290466526,2.55838813884725e-15,0.001593261295353
9000000000,3,0.011,0.007,0.637083658684567,-1.31903384611987e-13,4.53973747188164e-07,-8.51677559080699e-13,2.49249571458292e-11,-1.40127075445857e-13,-3.26899839212811e-15,-3.40545276577725e-09,-6.31354276577588e-16,-0.00217972178797554,2.36242039328281e-15,0.00390188336606274
9000000000,3,0.016,0.002,0.759558421243556,-3.2099947659332e-13,-6.91959688831562e-06,-1.26717710416892e-13,-1.46925839835637e-11,-1.42194298626957e-13,8.87127768709731e-15,6.45629222655312e-09,-1.84691963864702e-15,-0.00259875957770159,-5.15319108410571e-15,-0.00425896341764588
9000000000,3,0.016,0.004,1.09593618824069,-7.85234559861033e-13,1.829889406649e-06,-1.77721302642968e-13,-4.6894777546339e-10,-5.91471669620149e-13,-5.4597635140642e-16,8.13592385651426e-09,-1.87414449064474e-15,-0.00374960771298188,-3.35362359095864e-15,-0.000241533177400265
9000000000,3,0.016,0.005,1.04038857710142,-8.00654836689143e-13,-7.26815472180867e-07,-6.18326578821899e-13,-4.63990765402833e-10,-5.16182813060737e-13,-1.42635156682687e-15,-3.2996289431729e-09,-9.64755741453172e-15,-0.00355956501798917,-2.68645372166862e-15,0.00159326366802057
9000000000,3,0.016,0.007,0.637085379710279,-5.44328594452485e-13,2.45776297626794e-06,-5.25840219149992e-13,-1.14185651837864e-11,-2.93764947117667e-13,-3.64231283151991e-15,-2.37130710163228e-09,-3.55670244962115e-15,-0.00217972063372007,5.52549837655368e-16,0.00390187919952326
9000000000,4,0.009,0.003,-0.0889085043630309,3.71001291065236e-13,-0.243647875454096,-1.94970821997191e-13,1,-0,5.47897292883033e-15,0.00155950554348233,1.89850881282452e-14,1.72352089192439e-09,2.7846623031687e-15,0.000138649978565501
9000000000,4,0.004,0.002,-0.347414038263788,1.38549266660742e-12,-0.2463080461584,-2.63470651196917e-14,0.449668819311867,-2.90359421061827e-14,2.07911312228043e-14,0.0015764937101061,1.11681624923661e-14,6.85006150837351e-10,7.6610058270994e-15,0.00121803893354039
9000000000,4,0.004,0.004,-0.508197530235511,1.88799501000018e-12,-0.0235080217091564,2.49653364222712e-13,0.65774495596454,3.07325699789151e-13,2.51338054829461e-16,0.000150453797051788,9.20827398683096e-15,1.61243594388793e-08,-1.25757610120522e-15,0.000116258306473716
9000000000,4,0.004,0.005,-0.482912394709458,1.62026804688308e-12,0.158367183164375,8.30299283607988e-13,0.625023182592156,3.101251376515e-13,-6.65455369326159e-16,-0.000413729531195777,8.40244883726215e-15,2.81090112194994e-09,-4.81252096236841e-15,-0.000319659906787859
9000000000,4,0.004,0.007,-0.292019329252962,8.79967497436586e-13,0.356521984959264,1.14838089788508e-12,0.37796751114142,-3.31018267402869e-14,1.74666329452215e-15,-0.000931405147942987,4.24941380692459e-15,-5.58615279811639e-10,-8.70941256431467e-15,-0.000719628538448712
9000000000,4,0.011,0.002,0.0671870854095811,1.46636504497923e-13,-0.413888853254148,-6.32654517995788e-13,0.755598694545075,-2.42955933090324e-13,-7.02615231031091e-15,0.00264914276925796,2.12148049875721e-14,5.99033429037102e-09,7.9453773579114e-16,-0.00023551301499333
9000000000,4,0.011,0.004,0.0982650948256954,-1.01579792307504e-13,-0.0395008003409955,-2.15792365744635e-13,1.10524522096524,-2.55277704724158e-15,6.85252474332137e-15,0.000252833830291186,-5.77787325465966e-15,-2.64299138768485e-10,1.48491194289215e-15,-2.2488477224277e-05
9000000000,4,0.011,0.005,0.0933772558410406,-4.63702487649046e-14,0.266109523218415,4.50432742787123e-13,1.0502612789565,-3.28542612540936e-13,4.22350867063014e-15,-0.000695214611876239,-7.97101651753651e-16,-3.10467813311774e-10,1.55820619261736e-15,6.18054805258946e-05
9000000000,4,0.011,0.007,0.0564662228648348,-1.29899731481194e-13,0.599076675139631,8.07305539912798e-13,0.635118233950949,2.66297530045634e-13,5.49877685097338e-15,-0.00156510144006986,-2.99686603329737e-15,-8.42155969758592e-10,2.48384111190758e-15,0.000139149804638752
9000000000,4,0.016,0.002,0.34741403791833,-1.2438630005637e-12,-0.24630804666083,-1.69970448686927e-13,0.449668819337192,-5.12218811634855e-13,5.46835353539783e-15,0.00157649371640858,-1.16921127936575e-15,-6.80457866489848e-10,-7.93374478596556e-15,-0.00121803892636335
9000000000,4,0.016,0.004,0.508197528798536,-1.86563120343228e-12,-0.0235080205575942,-6.24174062752966e-14,0.657744955756604,-3.42512468664046e-13,9.82927198665921e-15,0.000150453784350522,-1.92594722866554e-14,-1.61330082043994e-08,-1.80606684218752e-15,-0.000116258291435224
9000000000,4,0.016,0.005,0.48291240653589,-1.82966457599566e-12,0.158367108330158,-1.86386891064154e-13,0.625023183932343,-2.06566374854306e-13,-1.11249553367752e-15,-0.000413729419397007,-1.10158615883225e-14,-2.80163063767318e-09,2.29717525327718e-15,0.000319660033978416
9000000000,4,0.016,0.007,0.292019264891904,-1.20377793487142e-12,0.356521665344989,3.35126989128463e-13,0.377967472113632,-1.80282942481497e-13,3.52914336068447e-15,-0.00093140466397238,5.15999923831839e-15,2.95074854248168e-10,8.68577957957944e-15,0.000719628481642633
9000000000,5,0.009,0.003,-0.291859237828305,-9.33414451593428e-13,1.89270953739099e-08,-2.67500114929581e-14,1,-0,6.18008162982955e-15,0.00242560829709549,8.63757511650179e-15,0.000838781224439443,-2.8317258149953e-15,0.000707916090433728
9000000000,5,0.004,0.002,-1.14644681698083,-4.51230624344032e-13,-3.1527583685348e-06,4.90895942892801e-14,0.45202603683511,-5.36021696223291e-14,1.96389715057539e-14,0.00253460218588879,2.80344284514188e-15,0.00329467620540021,-2.68180258586938e-15,0.00642844565338031
9000000000,5,0.004,0.004,-1.65420666516069,-7.48550194247372e-13,-6.85563022953616e-07,1.97318993112686e-14,0.652203378124029,6.28371863923193e-14,9.49050986122079e-15,0.000143718395697148,-3.8761334624278e-15,0.00475385931067648,-1.12334576935287e-15,0.000364587171504814
9000000000,5,0.004,0.005,-1.5703595939935,-8.8119937655399e-13,3.80420583503535e-06,-1.80634165172483e-13,0.619147692975555,7.06160730335494e-14,3.04389568085772e-15,-0.000948164545491378,-1.00129441071786e-14,0.00451288009457747,1.33278669600368e-15,-0.00240487155499073
9000000000,5,0.004,0.007,-0.961594203434663,-7.53599844640058e-13,5.74199713926825e-08,-3.03065308675721e-13,0.379138999405639,-1.14320779763932e-13,6.88672867994104e-15,-0.00232207286916951,-6.62130762892648e-15,0.00276342626270225,5.76159847856352e-15,-0.00588946128793265
9000000000,5,0.011,0.002,0.221703711441953,-6.42933068101563e-14,-1.27310095056707e-05,3.17423789736464e-13,0.759559338436669,2.48139148697174e-13,-1.01376577797554e-14,0.00425908282284341,1.45366876390672e-14,-0.000637182762865573,-4.05603384191603e-15,-0.00124296229469763
9000000000,5,0.011,0.004,0.319860180854893,-5.96593266027553e-13,2.03085535149552e-06,-1.25025173927908e-13,1.09593336166049,5.94488962601183e-13,3.42066382306057e-15,0.000241526086394003,-1.4122047767196e-15,-0.000919196121313804,-2.9383730476646e-15,-7.05466332976903e-05
9000000000,5,0.011,0.005,0.303649723507078,-5.22362412883177e-13,-6.80897738444631e-07,1.75107802290184e-13,1.04038835298435,3.20287334094815e-13,6.31267121238795e-15,-0.00159325513765225,5.34029422222865e-15,-0.000872624242332958,-2.21307346675928e-15,0.000464972720273743
9000000000,5,0.011,0.007,0.185939480137459,-3.9256307264889e-13,-5.15067809017415e-06,-1.74904203148643e-13,0.637086589575084,3.81629118711409e-13,1.32572482539216e-14,-0.00390190310400987,4.18692709712572e-16,-0.000534332396120249,-2.43728274005906e-15,0.00113880636198512
9000000000,5,0.016,0.002,1.14644681617458,8.03684782659683e-13,-3.15383519681005e-06,1.52850183233534e-12,0.452026036865025,-1.87026278801951e-13,-1.04473005010475e-14,0.00253460219136141,5.86659791287804e-15,-0.00329467620302293,6.02118388300098e-15,-0.0064284456141309
9000000000,5,0.016,0.004,1.65420666260685,1.10607643504922e-12,-6.84618027151223e-07,8.48132380838999e-13,0.652203377890786,5.7837798396027e-13,1.17495188824526e-15,0.000143718362658688,-5.63830287539975e-15,-0.00475385932086125,-9.26879973859347e-16,-0.000364587042358885
9000000000,5,0.016,0.005,1.5703595030638,8.9686871823873e-13,3.67497742672567e-06,1.22122907328119e-12,0.619147694400503,6.88384623329929e-13,-2.54760684248678e-15,-0.000948164434236972,4.70807678509369e-15,-0.0045128801649954,-3.12892061663972e-15,0.0024048726859342
9000000000,5,0.016,0.007,0.961594208547409,5.10502621405696e-13,-2.87656397404985e-07,1.52526123141128e-12,0.379138956986685,3.64168851735503e-13,3.13117415026205e-15,-0.0023220697393072,8.73313347506945e-15,-0.00276342514210418,-2.75938133964835e-15,0.00588946079499414
10000000000,1,0.009,0.003,-0.0471144155815768,3.50876951498357e-15,1,0,-1.06695746061e-15,0.399312299366295,-0.00415706005334392,-2.30454973161348e-17,-5.61231310001607e-10,1.44904429867381e-17,-4.23512297724155e-18,0.000490488894763461
10000000000,1,0.004,0.002,-0.167824030845729,-5.3739016330296e-15,0.661114361633547,7.42185992247267e-15,-1.03489983503802e-15,0.163676483166299,-0.00274827645890035,-1.30357351647005e-17,4.52900661011576e-10,-1.1027285180358e-17,-7.21795207936762e-18,0.00281793820616469
10000000000,1,0.004,0.004,-0.310145028704322,-4.80824815600271e-15,0.506280882497277,9.73194297563693e-15,-2.56140143835118e-15,0.302479214827683,-0.0021046471333435,-3.30924805910829e-17,-2.12868575610472e-09,-1.70708346151362e-18,-2.96425481557761e-18,0.00215798408455258
10000000000,1,0.004,0.005,-0.296216441638132,-3.45903469312635e-15,1.06237031929776,1.04841783147537e-14,-1.76051824060743e-15,0.288894007664882,-0.00180258499207582,-2.1509038355511e-17,2.8972835668899e-10,-1.73763755138024e-18,-2.29673027878518e-17,0.0018482723852898
10000000000,1,0.004,0.007,-0.140940898175406,-1.97759097002147e-15,0.923744371997267,4.4593313452478e-15,-9.89428749673288e-16,0.137458119251393,-0.00156737444373896,-1.20592612365605e-18,1.68821458508365e-09,2.7265268770604e-18,-1.83158558629455e-17,0.00160709343698894
10000000000,1,0.011,0.002,0.0324504054612874,4.0689180102436e-15,1.11090721437837,6.64255238201548e-15,-1.69869471127444e-15,0.275034415423779,-0.0046181214425534,-2.82252560216943e-17,-5.29539190063337e-09,1.5781580898431e-17,1.96920395376677e-17,-0.000544884148803333
10000000000,1,0.011,0.004,0.059970930627226,9.89200966078541e-16,0.850731167084138,3.85740520404462e-15,-2.39055122797606e-15,0.508272728824446,-0.0035365399263496,-3.53699702109715e-17,-5.01767928384204e-10,1.19460045909794e-17,2.69123593616301e-18,-0.000417276858933907
10000000000,1,0.011,0.005,0.0572769066999257,-5.20722713341684e-15,1.78516279093062,9.89465411434158e-15,-2.99038685960344e-15,0.485444754547261,-0.00302898817870422,-2.37822974888516e-17,7.7076505029638e-11,-1.51217235054684e-17,-3.90219338667841e-18,-0.000357389107876383
