#frequency,mode,x,y,Ex_re,Ex_im,Ey_re,Ey_im,Ez_re,Ez_im,Hx_re,Hx_im,Hy_re,Hy_im,Hz_re,Hz_im
9e+09,1,0.009144,0.004064,-1.99900162743164e-09,7.85138324271938e-15,1,-0,-1.32829540871925e-15,8.67896847970204e-14,-0.00181935971097472,-2.36954464565594e-17,-3.43751784359234e-11,1.9674074749504e-18,-3.56766450269528e-17,0.000628373070899161
9000000000,1,0.004572,0.002032,-3.11388241653594e-08,2.3974864684013e-15,0.618033988876381,2.60906285502104e-15,1.1277374103447e-16,-6.86236321227806e-14,-0.00112442601337839,1.00636652406148e-18,-4.43431440717875e-10,-4.1677382318114e-18,1.96617404762172e-17,0.00164510182497293
9000000000,1,0.004572,0.004064,-2.21958655009184e-09,7.23251334127392e-15,0.618033995214353,1.21846346557299e-14,-5.33741640305451e-16,-1.14295510661956e-13,-0.00112442615707852,-4.3657426565419e-17,-3.95993342942813e-12,2.55955106659538e-17,-2.7751743796766e-17,0.00164510160658873
9000000000,1,0.004572,0.006096,8.03884334174413e-10,3.91356378044173e-15,0.618033995687232,7.12180650172754e-15,-1.30213699064385e-16,-4.61715696953145e-14,-0.00112442616433352,-5.03776961236513e-18,2.0921059501644e-14,3.16968182762893e-18,-3.28947340390241e-17,0.00164510161756012
9000000000,1,0.004572,0.008128,2.77714200665923e-08,1.46142614796955e-14,0.618033992122982,2.44926844053244e-14,-1.14788351272842e-16,-3.25646234854106e-14,-0.00112442604514311,-2.32767592912511e-18,4.24921509014522e-10,1.20124316559275e-17,-2.71249478157893e-17,0.00164510187168829
9000000000,1,0.009144,0.002032,-4.05986635140905e-09,6.66203529274044e-15,1.00000001665288,1.23550229656221e-14,-5.87872417572839e-16,7.90568000223073e-14,-0.0018193597579846,-1.74365131697669e-17,-3.5891189431259e-12,-5.55336896660114e-19,3.95998335114345e-18,0.000628372903866232
9000000000,1,0.009144,0.006096,9.61649748495715e-10,-1.21560348865296e-14,1.00000000242944,-2.83278910147926e-14,-2.40571053307062e-15,-3.64875523076492e-14,-0.00181935971493442,-2.45778726141871e-17,2.70815461650102e-11,7.60762940407378e-18,-1.32590238516437e-17,0.000628373094739164
9000000000,1,0.009144,0.008128,4.17681466020501e-09,3.46557062472909e-15,1.00000001685687,3.65611602770023e-15,-1.04974070308964e-15,-9.38009248324962e-14,-0.00181935975713311,5.47703949009302e-18,4.3974738624215e-12,9.36200333465315e-18,4.71343978469137e-18,0.000628372907652143
9000000000,1,0.013716,0.002032,-1.87839410369074e-08,1.18691670050029e-15,1.00000005934554,9.57955680186176e-15,-5.26120776040123e-16,1.00169651552971e-13,-0.00181935965364977,-3.26754809844219e-17,1.79885084556626e-10,6.29481575145142e-18,1.49519004750846e-17,-0.000628373265840681
9000000000,1,0.013716,0.004064,-3.30495283727948e-09,-2.57411074241148e-14,0.999999990639473,-6.99072954344774e-14,-2.29597035256951e-15,1.46496612738287e-13,-0.00181935971503929,-9.79106164648495e-18,3.46979619528869e-11,-1.27027618878096e-17,3.00774278812517e-17,-0.000628373085182147
9000000000,1,0.013716,0.006096,3.33453569201925e-09,5.56692913558697e-15,0.999999990207412,-1.00442874418379e-14,-2.20555739229008e-15,5.63485506534806e-14,-0.00181935971687313,8.917867159031e-18,-2.40303677539897e-11,-1.08276042542206e-17,4.13338251697979e-17,-0.000628373072847642
9000000000,1,0.013716,0.008128,1.83863027962757e-08,-5.56665078287695e-16,1.00000005928713,1.06296011184821e-14,-1.81910598614446e-15,1.94269827134584e-14,-0.00181935965770163,1.45891288070682e-18,-1.79933855175082e-10,-5.88136351196574e-19,-1.11035994914543e-17,-0.000628373235676479
9000000000,1,0.018288,0.002032,-1.31089669040131e-08,9.40192279307854e-16,0.618034128312272,9.50205219703103e-15,-5.36657401444294e-16,-1.46651508292063e-14,-0.00112442670252179,-1.01275682040277e-17,-4.3019391276553e-10,-2.46726203612336e-17,9.9469730697926e-18,-0.00164510088630338
9000000000,1,0.018288,0.004064,-1.00529259241622e-09,-3.47840864337476e-16,0.618033994566111,6.06800851891305e-15,-8.58280075861147e-16,-1.25907024903148e-14,-0.00112442616508775,-1.80562150129077e-17,2.06066646183264e-12,-2.04221157704116e-17,1.70834656533275e-17,-0.00164510159781979
9000000000,1,0.018288,0.006096,-2.58204882427918e-09,2.11934947055093e-15,0.618033995327095,5.31451207015898e-15,-1.17760224881988e-15,-1.81314089909076e-13,-0.00112442613179509,9.34142849478644e-18,3.07570886240483e-11,-1.70172454976558e-17,3.34948479993652e-18,-0.00164510165226976
9000000000,1,0.018288,0.008128,1.20597398591454e-08,-2.96146864632863e-15,0.618034117495793,5.64100381087556e-15,-1.09079056410932e-15,-5.75077824924596e-14,-0.00112442663538374,2.13832408638104e-18,4.01268047207191e-10,-2.16516628497348e-17,2.76448880390937e-17,-0.00164510108869394
9000000000,2,0.009144,0.004064,1.40147454162997e-07,2.26564707682764e-14,1,-0,2.77250336022307e-13,-8.22551661525742e-15,-4.98732633834048e-17,0.00281252367125603,6.79554013404336e-17,-8.77269596331997e-09,8.06595976518537e-17,-0.00532365636237333
9000000000,2,0.004572,0.002032,-5.60601914932253e-07,2.10224194495528e-14,1.61802994018917,4.77251780607804e-14,-3.45020996869421e-13,-6.95566868136984e-15,-1.18045041032645e-16,0.00455072568009788,1.94819737313882e-17,1.86090678475509e-08,6.59348101296944e-17,0.00203347809353302
9000000000,2,0.004572,0.004064,-5.84591770778635e-08,2.52484645914979e-14,1.61803031883568,6.24550286127963e-14,-5.19278300372879e-13,-1.3035156149456e-14,-6.68662412898129e-17,0.00455072817175041,3.02944991235037e-17,1.4495217315975e-11,-1.38586117586027e-16,0.00203345176701061
9000000000,2,0.004572,0.006096,8.97394298808618e-09,1.6746871350652e-14,1.61803035405913,4.12608506965139e-14,-1.44091398884084e-13,-1.14463582855357e-14,-1.6805663449055e-16,0.00455072862302332,5.0461143308394e-17,-2.46021984863319e-11,-7.62907524764806e-17,0.00203345311100606
9000000000,2,0.004572,0.008128,4.92113888577295e-07,2.38998877042493e-14,1.61802990048614,6.36140639181933e-14,-6.53437852287417e-14,-7.19874309042706e-15,-1.51120082308561e-16,0.00455072753959969,3.43734007539699e-17,-1.88321072034232e-08,-6.85029886982653e-17,0.00203348267627847
9000000000,2,0.009144,0.002032,5.50735744192694e-07,2.70372713822388e-14,0.999997056572386,3.52298277810114e-14,1.67456143006162e-13,-5.77220755291494e-15,-8.73728146126783e-17,0.00281250516920754,3.2267649510869e-17,5.42314827692598e-10,2.05847763720235e-16,-0.00532365462480836
9000000000,2,0.009144,0.006096,-1.10886554112081e-07,-2.55747933035984e-14,0.999999913971533,-6.90585419312634e-14,1.9740418955259e-14,-1.08379995936222e-14,-8.40691054394684e-17,0.00281252347895873,6.96077526115812e-17,8.35205290765931e-09,1.02855219935522e-16,-0.0053236536985853
9000000000,2,0.009144,0.008128,-5.55426665910015e-07,2.24000052374709e-14,0.999997050063692,1.9919099008781e-14,-8.9218790268738e-14,-5.02149512745655e-15,-1.00798934834133e-16,0.00281250520901116,1.6796688092442e-17,-4.98434711646578e-10,1.21189282047362e-16,-0.00532365412969133
9000000000,2,0.013716,0.002032,-4.50292787800918e-07,6.96534843499327e-15,-0.999992998649201,-2.06229937667404e-14,-5.10705059403433e-14,-5.17856943315048e-15,1.59957050012888e-16,-0.00281250767195833,1.87190739599845e-17,-2.83200987216865e-09,2.03196608738904e-16,-0.00532360751385055
9000000000,2,0.013716,0.004064,-1.51257027190422e-06,-3.86398727247663e-14,-1.00000290073718,-2.0596487433208e-13,-6.1350553502674e-14,-8.86527705988238e-15,7.84404980413172e-17,-0.00281252581342116,6.99794730650936e-17,-1.03124621637389e-08,1.97432908634759e-16,-0.00532363922918807
9000000000,2,0.013716,0.006096,1.51615409250901e-06,1.16548061497757e-14,-1.00000291991631,-5.38083402183151e-14,3.86462133739029e-14,-2.94586863712875e-15,-5.1236581836431e-18,-0.00281252599174404,5.27558801365369e-17,1.00083710700798e-08,1.191937230396e-16,-0.00532364024172127
9000000000,2,0.013716,0.008128,4.42861736831222e-07,1.72147431355104e-15,-0.999993006581183,4.97051142846143e-15,-1.24872806691367e-14,3.39320910139245e-15,3.25650330550658e-17,-0.00281250722215289,2.19012797317965e-17,2.73538714639767e-09,1.60645288935965e-16,-0.00532361041084889
9000000000,2,0.018288,0.002032,2.8836655787206e-06,5.4370517484774e-15,-1.61802697089842,-6.3465139536602e-14,1.03716373127507e-13,-7.48249578977862e-17,1.00253312199519e-16,-0.004550698525646,7.68775503252152e-17,2.56406471756525e-08,3.3422979949898e-17,0.00203338117006473
9000000000,2,0.018288,0.004064,4.08877951130989e-08,7.29234457620855e-15,-1.61803033808988,-4.53366749393963e-14,9.46366885796686e-14,1.51595400807769e-15,1.37655882692823e-16,-0.00455072840059345,6.40390175862134e-17,-2.27041814773766e-10,-1.38027543369489e-16,0.00203345068880993
9000000000,2,0.018288,0.006096,4.53519028817643e-08,1.78551365025101e-14,-1.6180303725068,-3.21898487994363e-14,7.70941839392344e-13,9.27716720106075e-16,1.33644216644304e-17,-0.00455073112145968,1.10909997945594e-16,-1.13624371602994e-09,-1.27130688041422e-16,0.00203345449953439
9000000000,2,0.018288,0.008128,-2.84873557185605e-06,1.06542000519044e-14,-1.61802683291784,-4.4920207540952e-14,2.84740637646223e-13,-2.98569207782681e-15,8.3750065701084e-17,-0.00455070208227457,2.87274278161202e-17,-2.57256136305593e-08,-9.30723126419844e-17,0.00203340243000536
9000000000,3,0.009144,0.004064,1,2.74006991591787e-31,4.11600930792688e-07,-1.32219246259515e-14,-8.87437492555217e-14,3.51833940780132e-14,-6.52741487149433e-17,2.27805614407462e-09,9.27149669988381e-18,-0.00344732924984561,8.97039889483238e-17,-0.00141384399233876
9000000000,3,0.004572,0.002032,0.618033441788946,4.37854788900756e-14,1.37702915810945e-06,-1.27870144005986e-13,2.04697007699964e-14,1.5233753237158e-14,-4.55117227419357e-17,-3.07464497806556e-10,4.4691044467743e-17,-0.00213056089791491,9.55698763049508e-18,-0.00370147969905108
9000000000,3,0.004572,0.004064,1.00000023295888,-2.45592146974523e-14,4.02507919883549e-08,-1.86941166057372e-14,-2.06204026903355e-13,2.48313799532636e-14,4.98814541549944e-17,-6.18459100012476e-10,6.72759523448082e-18,-0.00344733004073466,4.20922967820163e-17,-0.00141384069629049
9000000000,3,0.004572,0.006096,1.00000024888994,-3.86456548923952e-15,-1.22206202165649e-07,1.78952902638778e-14,2.03776997368222e-14,2.18137780369424e-14,2.38943283641594e-17,-1.1957702294669e-10,6.86394116132065e-17,-0.00344733058748225,-4.30537309878304e-17,0.00141383502951249
9000000000,3,0.004572,0.008128,0.618033441139783,-4.10740015992913e-15,-1.49472214642228e-06,1.09888090148265e-14,7.36017735748259e-14,1.21985577804698e-14,2.58554414043951e-18,-1.26327822580257e-09,3.57391422437328e-18,-0.00213056077243553,-3.00557832146944e-17,0.0037014783477125
9000000000,3,0.009144,0.002032,0.618034119124999,1.61647122105518e-14,6.31668344885083e-07,-1.99348232706581e-14,-6.75493407188401e-14,1.82377588933405e-14,-3.60200669878373e-17,6.96795379555606e-10,-1.99408509140237e-18,-0.00213056805388634,-7.42527143830598e-19,-0.00370147945248771
9000000000,3,0.009144,0.006096,1.00000003760002,1.35623230005887e-14,-1.87490699205355e-07,-8.09780540708985e-15,-8.66445972258566e-14,3.9123670948654e-14,3.49617758907779e-17,3.06719683311649e-10,-4.090535819677e-17,-0.0034473296978677,3.63864937150367e-17,0.00141383468802984
9000000000,3,0.009144,0.008128,0.618034119648679,-1.32132571781905e-14,-6.32132884199283e-07,2.02813085215264e-14,1.57309381291132e-13,2.26262106577044e-14,3.78916801747587e-17,-7.49416554098904e-10,-2.92664801068202e-17,-0.00213056803627889,1.83393716102846e-17,0.00370147851599462
9000000000,3,0.013716,0.002032,0.618034097802332,-3.13245664570177e-15,8.43715075973844e-08,-3.31126874902963e-14,-2.8546192433235e-14,1.66245078325879e-14,-2.42300715968495e-19,3.91795733057086e-10,-2.1366236892973e-18,-0.00213056641187169,6.93350142398381e-18,-0.00370147928659689
9000000000,3,0.013716,0.004064,1.00000006580769,2.82429332570197e-14,-2.20194122113069e-07,9.71294070714276e-14,-2.35831565467585e-13,2.66035446649163e-14,-4.6272527915986e-17,2.59927742911583e-11,4.31131418568987e-17,-0.00344732802178161,6.08818121459058e-17,-0.00141383386288569
9000000000,3,0.013716,0.006096,1.00000006512229,1.55764756266664e-14,2.19487727450685e-07,1.44296186634317e-14,-4.73411885873844e-13,2.39708152468501e-14,-4.78017507583952e-18,-4.40257907166434e-11,-2.53020127205488e-17,-0.00344732799060949,1.06111876505031e-16,0.00141383374449994
9000000000,3,0.013716,0.008128,0.618034097173263,4.7110098251354e-15,-8.24565189626284e-08,9.20599175553361e-15,-1.34561230428538e-13,1.33993979257986e-14,3.93289044003545e-17,-3.74740809235442e-10,-1.64335277902374e-17,-0.00213056636032375,2.57060653346604e-18,0.0037014795874141
9000000000,3,0.018288,0.002032,0.618034166722072,3.77764473582659e-15,2.06306925114173e-07,-3.05523935682081e-15,-1.10111102990754e-12,4.80396253813765e-15,-4.51890660950888e-17,1.29863996492971e-10,9.04096595183151e-18,-0.00213056649610472,-1.17864270611921e-16,-0.00370147941727918
9000000000,3,0.018288,0.004064,1.00000015937714,5.58328635566846e-15,5.4221313393944e-09,-1.48835139650245e-15,-1.29366099917471e-12,8.06333507855505e-15,6.38217332722011e-18,2.38803627020717e-11,-4.31193291591622e-17,-0.00344732836240062,-2.60625201777146e-17,-0.0014138394950633
9000000000,3,0.018288,0.006096,1.00000024779601,8.15418486778125e-15,3.3806439061638e-08,-4.65622516831543e-16,-8.662046186011e-13,7.78513552450503e-15,-2.73565461968189e-17,-1.24254848118726e-09,-8.81389811361262e-17,-0.00344733072856057,6.17829035192322e-17,0.00141384071314416
9000000000,3,0.018288,0.008128,0.618034120914494,6.7035947020297e-15,-2.00840116767964e-07,2.15124637699547e-15,-7.95753526025975e-13,7.65247184212508e-15,-7.63240564997108e-19,9.27137321843227e-12,-3.8191256137169e-18,-0.00213056633505443,5.10717333581402e-17,0.00370147921880568
9000000000,4,0.009144,0.004064,1,0,-0.44382222702988,4.1331730364193e-05,-0.00208236086450908,-0.000140033761582599,3.46103916782071e-08,-0.00175731365909497,-8.79929311338793e-08,-0.00395140412076679,-2.59725338625472e-08,-0.00169278548991377
9000000000,4,0.004572,0.002032,1.61803755828763,-2.0135155121372e-10,-0.718135532409929,6.68764676541013e-05,-0.000795391357161689,-5.34881564432235e-05,5.6002452916923e-08,-0.00284337739037578,-1.42375786677714e-07,-0.00639353202047878,-1.78013090942383e-07,-0.0116021786044635
9000000000,4,0.004572,0.004064,2.61804021555588,-3.66394599047927e-11,-0.274302573178305,2.5544411191307e-05,-0.00128697033127993,-8.65456605025397e-05,2.13911195363864e-08,-0.00108607022074903,-2.30369807956128e-07,-0.0103450148488632,-6.79950028097703e-08,-0.0044316413032629
9000000000,4,0.004572,0.006096,2.6180407796346,-4.61619310790139e-11,0.274301109877612,-2.55442837820606e-05,-0.00128697033369713,-8.65456607045854e-05,-2.13911774568743e-08,0.00108605794945324,-2.30369764162552e-07,-0.0103450036882379,6.79946424617334e-08,0.0044316178325778
9000000000,4,0.004572,0.008128,1.61803761703597,-2.30175853753438e-10,0.718136156340768,-6.68763287702238e-05,-0.000795391409088872,-5.34881599184755e-05,-5.6002687572492e-08,0.00284337798762178,-1.42375199194259e-07,-0.00639353036987454,1.7801300601712e-07,0.011602173079143
9000000000,4,0.009144,0.002032,0.618035607546708,-6.39911328701523e-11,-1.16196534294896,0.000108207811786666,-0.00128697034837502,-8.65456616939042e-05,9.06144723701097e-08,-0.00460064726183232,-5.43827071341366e-08,-0.00244211330145408,-6.79948181196326e-08,-0.0044316292655657
9000000000,4,0.009144,0.006096,1.00000049235793,-3.74174346006341e-11,0.443820803692352,-4.13320703783747e-05,-0.00208236160857259,-0.000140033811630849,-3.46126724693319e-08,0.00175731610149246,-8.79927955144157e-08,-0.00395142042141452,2.59717423151818e-08,0.00169273391038667
9000000000,4,0.009144,0.008128,0.618035589468055,-6.64537828546454e-11,1.16196529073751,-0.000108207819970842,-0.00128697038053341,-8.65456638836324e-05,-9.06144036022865e-08,0.00460064705162971,-5.43827598889788e-08,-0.0024421115197154,6.79947298670302e-08,0.00443162352037205
9000000000,4,0.013716,0.002032,-0.618035631114587,2.36457923554859e-11,-1.16196358858217,0.000108207855865944,-0.00128697037173235,-8.65456632717554e-05,9.06144833053455e-08,-0.00460064450643181,5.43828991279241e-08,0.00244212302924227,6.79948496730919e-08,0.00443163131927197
9000000000,4,0.013716,0.004064,-1.00000243826808,4.80661588479446e-11,-0.443824883838035,4.13319839193388e-05,-0.00208236164577858,-0.000140033814164375,3.46116313892371e-08,-0.00175731303973429,8.79934469568237e-08,0.0039514319625517,2.59716239653442e-08,0.00169272618420713
9000000000,4,0.013716,0.006096,-1.00000242515154,4.45806645869911e-11,0.443824944339851,-4.13319771874352e-05,-0.00208236163055953,-0.000140033813177557,-3.46114606245244e-08,0.00175731510160352,8.79934291820401e-08,0.0039514319368985,-2.59716400197236e-08,-0.0016927272335122
9000000000,4,0.013716,0.008128,-0.618035632056158,2.54120604766431e-11,1.16196357708444,-0.000108207856476519,-0.00128697037210597,-8.65456633381847e-05,-9.06144863349198e-08,0.00460064462342401,5.43828834631819e-08,0.00244212276628504,-6.79948694874603e-08,-0.00443163262445973
9000000000,4,0.018288,0.002032,-1.61803185602468,9.45520712426163e-11,-0.718118943027767,6.68762972602515e-05,-0.000795391400865768,-5.34881595932821e-05,5.60030895370503e-08,-0.00284337116999774,1.42375697504568e-07,0.00639353213031817,1.78012993699841e-07,0.0116021722711441
9000000000,4,0.018288,0.004064,-2.61804067990002,2.32230093155953e-11,-0.274302653325226,2.55444090843374e-05,-0.00128697023811908,-8.65456545592665e-05,2.1391158098646e-08,-0.00108606740944912,2.30369808565019e-07,0.0103450111114267,6.79949532846098e-08,0.00443163806892475
9000000000,4,0.018288,0.006096,-2.61804022111986,1.84624170742562e-11,0.274302565646577,-2.55444130114336e-05,-0.00128697033166618,-8.65456607580947e-05,-2.13910587033768e-08,0.00108606968456152,2.30370107656338e-07,0.0103450168643132,-6.79950895400997e-08,-0.00443164696449757
9000000000,4,0.018288,0.008128,-1.61803183273516,1.02280822994413e-10,0.718118999761948,-6.68762859717195e-05,-0.000795391513839158,-5.34881671125443e-05,-5.60028057683402e-08,0.00284337243560506,1.42375939042941e-07,0.00639353500465132,-1.78013161242781e-07,-0.0116021831917376
9000000000,5,0.009144,0.004064,-0.109578522326427,-2.7357637846045e-06,-0.246454734451522,1.21587421637591e-06,1,-0,-4.80618710194616e-09,0.000439664916960834,-1.08136880878897e-08,-0.000195236996332712,-4.63211796579003e-09,6.18822259983195e-08
9000000000,5,0.004572,0.002032,-0.177300726949712,-4.42656854347856e-06,-0.398772681188084,1.96736972270485e-06,0.381966147534056,9.5462013042976e-15,-7.77653069368838e-09,0.000711402915002056,-1.74969855984247e-08,-0.000315898929590979,-3.17480621717313e-08,4.24134447990049e-07
9000000000,5,0.004572,0.004064,-0.286880715318921,-7.16233966960206e-06,-0.152316794558809,7.51466212942726e-07,0.618034247755794,1.97925657691282e-14,-2.97036135267407e-09,0.000271731986406167,-2.83108891515854e-08,-0.000511135084922133,-1.21266900250189e-08,1.62005068468374e-07
9000000000,5,0.004572,0.006096,-0.286880709812102,-7.16234119464486e-06,0.15231604551488,-7.51462220356848e-07,0.618034249220215,1.33230462391685e-14,2.97032780165571e-09,-0.000271731055232485,-2.83108585476429e-08,-0.000511135994817707,1.21266257774226e-08,-1.62004210301808e-07
9000000000,5,0.004572,0.008128,-0.177300527726188,-4.42656875585034e-06,0.398771621319778,-1.96737156866783e-06,0.381966172430288,1.47330080257542e-15,7.77653230371651e-09,-0.000711404656328115,-1.74969810804327e-08,-0.000315894916228825,3.17480470781944e-08,-4.24134246037703e-07
9000000000,5,0.009144,0.002032,-0.0677229715399597,-1.69079943716699e-06,-0.645223827845955,3.18326483673017e-06,0.618034256284362,1.26187858364714e-15,-1.25825978699159e-08,0.00115107465580295,-6.68325759268317e-09,-0.000120662473211828,-1.21266570871606e-08,1.62004628666912e-07
9000000000,5,0.009144,0.006096,-0.109578308987484,-2.73576514003597e-06,0.24645731852201,-1.21587038858245e-06,1.00000035737493,2.15115044782368e-15,4.80619369393478e-09,-0.000439681468034372,-1.08137327705372e-08,-0.000195234242284541,4.63197675678226e-09,-6.18803408150156e-08
